time,v_out,v_in
0.000,900.0E-3,900.0E-3
22.71E-3,899.5E-3,901.1E-3
46.32E-3,898.7E-3,902.3E-3
84.74E-3,897.2E-3,904.3E-3
113.2E-3,895.9E-3,905.7E-3
156.3E-3,893.8E-3,907.9E-3
202.7E-3,891.5E-3,910.2E-3
261.2E-3,888.7E-3,913.1E-3
347.9E-3,884.4E-3,917.5E-3
512.1E-3,876.4E-3,925.7E-3
732.8E-3,865.7E-3,936.8E-3
973.9E-3,853.9E-3,948.9E-3
1.225,841.7E-3,961.5E-3
1.480,829.3E-3,974.3E-3
1.735,816.9E-3,987.0E-3
1.987,804.7E-3,999.6E-3
2.236,792.6E-3,1.012
2.483,780.7E-3,1.024
2.728,768.9E-3,1.036
2.972,757.2E-3,1.049
3.213,745.6E-3,1.060
3.454,734.1E-3,1.072
3.694,722.7E-3,1.084
3.932,711.4E-3,1.096
4.170,700.2E-3,1.107
4.407,689.0E-3,1.119
4.644,677.9E-3,1.130
4.880,666.9E-3,1.141
5.116,655.9E-3,1.153
5.351,645.1E-3,1.164
5.586,634.3E-3,1.175
5.821,623.5E-3,1.186
6.055,612.9E-3,1.197
6.289,602.3E-3,1.208
6.523,591.8E-3,1.219
6.756,581.4E-3,1.230
6.990,571.0E-3,1.240
7.223,560.7E-3,1.251
7.456,550.6E-3,1.261
7.689,540.4E-3,1.272
7.921,530.4E-3,1.282
8.154,520.5E-3,1.292
8.386,510.6E-3,1.302
8.618,500.9E-3,1.312
8.850,491.2E-3,1.322
9.082,481.6E-3,1.332
9.314,472.1E-3,1.342
9.546,462.7E-3,1.352
9.778,453.4E-3,1.361
10.01,444.2E-3,1.371
10.24,435.1E-3,1.380
10.47,426.1E-3,1.389
10.70,417.2E-3,1.398
10.93,408.5E-3,1.407
11.17,399.8E-3,1.416
11.40,391.2E-3,1.425
11.63,382.7E-3,1.434
11.86,374.4E-3,1.442
12.09,366.1E-3,1.451
12.32,358.0E-3,1.459
12.55,350.0E-3,1.467
12.78,342.1E-3,1.476
13.01,334.3E-3,1.484
13.24,326.7E-3,1.491
13.47,319.2E-3,1.499
13.70,311.8E-3,1.507
13.93,304.5E-3,1.514
14.16,297.3E-3,1.522
14.39,290.3E-3,1.529
14.62,283.4E-3,1.536
14.85,276.6E-3,1.543
15.09,270.0E-3,1.550
15.32,263.5E-3,1.556
15.55,257.1E-3,1.563
15.78,250.9E-3,1.569
16.01,244.8E-3,1.576
16.24,238.8E-3,1.582
16.46,233.0E-3,1.588
16.69,227.4E-3,1.594
16.92,221.8E-3,1.599
17.15,216.4E-3,1.605
17.38,211.2E-3,1.610
17.61,206.1E-3,1.615
17.84,201.1E-3,1.620
18.07,196.3E-3,1.625
18.30,191.6E-3,1.630
18.53,187.1E-3,1.635
18.76,182.7E-3,1.639
18.99,178.5E-3,1.644
19.22,174.4E-3,1.648
19.45,170.5E-3,1.652
19.68,166.7E-3,1.656
19.91,163.1E-3,1.659
20.14,159.7E-3,1.663
20.37,156.3E-3,1.666
20.60,153.2E-3,1.670
20.83,150.2E-3,1.673
21.06,147.4E-3,1.676
21.28,144.7E-3,1.678
21.51,142.1E-3,1.681
21.74,139.8E-3,1.683
21.97,137.6E-3,1.686
22.20,135.5E-3,1.688
22.43,133.6E-3,1.690
22.66,131.9E-3,1.691
22.89,130.3E-3,1.693
23.12,128.9E-3,1.694
23.35,127.6E-3,1.696
23.58,126.5E-3,1.697
23.80,125.6E-3,1.698
24.03,124.8E-3,1.699
24.26,124.2E-3,1.699
24.49,123.7E-3,1.700
24.72,123.4E-3,1.700
24.95,123.3E-3,1.700
25.18,123.3E-3,1.700
25.41,123.5E-3,1.700
25.64,123.8E-3,1.699
25.86,124.3E-3,1.699
26.09,125.0E-3,1.698
26.32,125.8E-3,1.697
26.55,126.8E-3,1.696
26.78,128.0E-3,1.695
27.01,129.3E-3,1.694
27.24,130.7E-3,1.692
27.47,132.4E-3,1.690
27.70,134.2E-3,1.689
27.93,136.1E-3,1.687
28.16,138.2E-3,1.684
28.39,140.5E-3,1.682
28.62,143.0E-3,1.679
28.85,145.6E-3,1.677
29.08,148.3E-3,1.674
29.31,151.2E-3,1.671
29.55,154.3E-3,1.668
29.78,157.6E-3,1.664
30.01,161.0E-3,1.661
30.25,164.6E-3,1.657
30.48,168.4E-3,1.653
30.71,172.3E-3,1.649
30.95,176.4E-3,1.645
31.19,180.7E-3,1.640
31.42,185.1E-3,1.636
31.66,189.7E-3,1.631
31.90,194.5E-3,1.626
32.14,199.4E-3,1.621
32.38,204.6E-3,1.616
32.62,209.9E-3,1.610
32.86,215.4E-3,1.604
33.10,221.0E-3,1.599
33.34,226.9E-3,1.593
33.59,232.9E-3,1.586
33.83,239.1E-3,1.580
34.08,245.5E-3,1.573
34.33,252.1E-3,1.567
34.57,258.8E-3,1.560
34.82,265.8E-3,1.552
35.07,272.9E-3,1.545
35.33,280.3E-3,1.537
35.58,287.8E-3,1.530
35.84,295.6E-3,1.522
36.09,303.5E-3,1.513
36.35,311.7E-3,1.505
36.61,320.0E-3,1.496
36.87,328.6E-3,1.488
37.14,337.4E-3,1.478
37.40,346.4E-3,1.469
37.67,355.6E-3,1.460
37.94,365.1E-3,1.450
38.21,374.8E-3,1.440
38.48,384.7E-3,1.430
38.76,394.9E-3,1.419
39.04,405.3E-3,1.408
39.32,416.0E-3,1.397
39.61,427.0E-3,1.386
39.90,438.2E-3,1.374
40.19,449.7E-3,1.363
40.48,461.5E-3,1.350
40.78,473.6E-3,1.338
41.08,486.0E-3,1.325
41.39,498.7E-3,1.312
41.70,511.7E-3,1.299
42.01,525.1E-3,1.285
42.33,538.9E-3,1.271
42.66,553.0E-3,1.256
42.99,567.6E-3,1.241
43.33,582.6E-3,1.226
43.67,598.0E-3,1.210
44.03,614.0E-3,1.193
44.39,630.5E-3,1.176
44.76,647.5E-3,1.159
45.14,665.2E-3,1.140
45.53,683.6E-3,1.122
45.94,702.7E-3,1.102
46.37,722.8E-3,1.081
46.81,743.9E-3,1.059
47.27,766.1E-3,1.036
47.77,789.9E-3,1.012
48.29,815.5E-3,985.6E-3
48.87,843.6E-3,956.7E-3
49.52,875.2E-3,924.0E-3
50.30,913.1E-3,885.0E-3
51.30,961.9E-3,834.8E-3
52.30,1.010,784.9E-3
53.14,1.051,743.2E-3
53.82,1.083,709.6E-3
54.41,1.111,680.9E-3
54.94,1.136,655.7E-3
55.42,1.158,633.0E-3
55.86,1.178,612.1E-3
56.28,1.197,592.6E-3
56.67,1.215,574.2E-3
57.06,1.232,556.8E-3
57.43,1.248,540.1E-3
57.78,1.264,524.1E-3
58.13,1.279,508.8E-3
58.47,1.293,493.9E-3
58.81,1.307,479.6E-3
59.13,1.320,465.7E-3
59.45,1.334,452.3E-3
59.77,1.346,439.3E-3
60.08,1.358,426.6E-3
60.38,1.370,414.4E-3
60.68,1.382,402.4E-3
60.98,1.393,390.8E-3
61.27,1.404,379.6E-3
61.56,1.415,368.6E-3
61.85,1.425,357.9E-3
62.13,1.435,347.6E-3
62.41,1.445,337.5E-3
62.69,1.455,327.6E-3
62.96,1.464,318.1E-3
63.24,1.473,308.8E-3
63.51,1.482,299.7E-3
63.77,1.490,290.9E-3
64.04,1.499,282.3E-3
64.30,1.507,274.0E-3
64.56,1.515,265.9E-3
64.82,1.522,258.0E-3
65.08,1.530,250.3E-3
65.34,1.537,242.9E-3
65.59,1.544,235.7E-3
65.85,1.551,228.7E-3
66.10,1.558,221.8E-3
66.35,1.564,215.2E-3
66.60,1.570,208.8E-3
66.85,1.576,202.6E-3
67.10,1.582,196.6E-3
67.34,1.588,190.8E-3
67.59,1.593,185.2E-3
67.83,1.599,179.8E-3
68.07,1.604,174.6E-3
68.31,1.609,169.5E-3
68.56,1.613,164.7E-3
68.80,1.618,160.0E-3
69.04,1.622,155.5E-3
69.27,1.626,151.2E-3
69.51,1.631,147.1E-3
69.75,1.634,143.2E-3
69.98,1.638,139.4E-3
70.22,1.642,135.8E-3
70.46,1.645,132.4E-3
70.69,1.648,129.2E-3
70.92,1.651,126.1E-3
71.16,1.654,123.2E-3
71.39,1.657,120.5E-3
71.62,1.659,117.9E-3
71.85,1.661,115.6E-3
72.09,1.663,113.4E-3
72.32,1.665,111.3E-3
72.55,1.667,109.5E-3
72.78,1.669,107.8E-3
73.01,1.670,106.2E-3
73.24,1.672,104.9E-3
73.47,1.673,103.7E-3
73.70,1.674,102.7E-3
73.93,1.675,101.8E-3
74.16,1.676,101.1E-3
74.39,1.676,100.6E-3
74.62,1.676,100.2E-3
74.84,1.677,100.0E-3
75.07,1.677,100.0E-3
75.30,1.677,100.1E-3
75.53,1.676,100.4E-3
75.76,1.676,100.9E-3
75.99,1.675,101.5E-3
76.22,1.675,102.3E-3
76.45,1.674,103.3E-3
76.68,1.673,104.4E-3
76.90,1.671,105.7E-3
77.13,1.670,107.2E-3
77.36,1.668,108.8E-3
77.59,1.667,110.6E-3
77.82,1.665,112.6E-3
78.05,1.663,114.7E-3
78.28,1.661,117.0E-3
78.51,1.658,119.4E-3
78.75,1.656,122.0E-3
78.98,1.653,124.8E-3
79.21,1.650,127.8E-3
79.44,1.647,130.9E-3
79.67,1.644,134.2E-3
79.91,1.641,137.7E-3
80.14,1.637,141.3E-3
80.37,1.633,145.2E-3
80.61,1.629,149.1E-3
80.84,1.625,153.3E-3
81.08,1.621,157.6E-3
81.31,1.617,162.1E-3
81.55,1.612,166.8E-3
81.79,1.608,171.7E-3
82.03,1.603,176.7E-3
82.27,1.598,182.0E-3
82.51,1.593,187.4E-3
82.75,1.587,192.9E-3
82.99,1.582,198.7E-3
83.23,1.576,204.7E-3
83.48,1.570,210.8E-3
83.72,1.564,217.1E-3
83.97,1.557,223.6E-3
84.21,1.551,230.3E-3
84.46,1.544,237.2E-3
84.71,1.537,244.3E-3
84.96,1.530,251.6E-3
85.21,1.523,259.1E-3
85.47,1.516,266.8E-3
85.72,1.508,274.7E-3
85.98,1.500,282.8E-3
86.23,1.492,291.1E-3
86.49,1.484,299.7E-3
86.75,1.475,308.4E-3
87.02,1.467,317.4E-3
87.28,1.458,326.6E-3
87.55,1.449,336.0E-3
87.82,1.439,345.7E-3
88.09,1.430,355.6E-3
88.36,1.420,365.7E-3
88.64,1.410,376.1E-3
88.91,1.399,386.7E-3
89.19,1.389,397.6E-3
89.48,1.378,408.8E-3
89.76,1.367,420.2E-3
90.05,1.356,432.0E-3
90.35,1.344,444.0E-3
90.64,1.332,456.3E-3
90.94,1.320,468.9E-3
91.25,1.307,481.9E-3
91.56,1.294,495.2E-3
91.87,1.281,508.9E-3
92.19,1.267,522.9E-3
92.51,1.253,537.3E-3
92.84,1.239,552.1E-3
93.17,1.224,567.3E-3
93.52,1.209,583.1E-3
93.87,1.193,599.2E-3
94.22,1.177,616.0E-3
94.59,1.160,633.3E-3
94.97,1.143,651.2E-3
95.35,1.125,669.8E-3
95.76,1.106,689.2E-3
96.17,1.086,709.4E-3
96.60,1.066,730.6E-3
97.06,1.044,753.0E-3
97.54,1.021,776.7E-3
98.05,996.4E-3,802.2E-3
98.60,969.5E-3,829.8E-3
99.22,939.7E-3,860.6E-3
99.61,920.5E-3,880.3E-3
100.0,901.4E-3,900.0E-3
