time,v_out,v_in
0.000,898.7E-3,900.0E-3
22.70E-3,898.2E-3,901.1E-3
46.32E-3,897.4E-3,902.3E-3
84.62E-3,895.9E-3,904.3E-3
113.0E-3,894.6E-3,905.7E-3
156.2E-3,892.5E-3,907.9E-3
202.5E-3,890.3E-3,910.2E-3
260.8E-3,887.4E-3,913.1E-3
346.7E-3,883.2E-3,917.4E-3
508.2E-3,875.3E-3,925.5E-3
727.5E-3,864.6E-3,936.6E-3
968.1E-3,852.8E-3,948.6E-3
1.219,840.6E-3,961.2E-3
1.474,828.2E-3,974.0E-3
1.728,815.8E-3,986.7E-3
1.980,803.6E-3,999.3E-3
2.230,791.5E-3,1.012
2.477,779.5E-3,1.024
2.722,767.7E-3,1.036
2.966,756.0E-3,1.048
3.207,744.4E-3,1.060
3.448,732.9E-3,1.072
3.688,721.5E-3,1.084
3.926,710.1E-3,1.095
4.164,698.9E-3,1.107
4.401,687.7E-3,1.118
4.638,676.6E-3,1.130
4.874,665.5E-3,1.141
5.110,654.6E-3,1.152
5.345,643.7E-3,1.164
5.580,632.9E-3,1.175
5.815,622.1E-3,1.186
6.049,611.4E-3,1.197
6.283,600.8E-3,1.208
6.517,590.3E-3,1.218
6.750,579.9E-3,1.229
6.984,569.5E-3,1.240
7.217,559.2E-3,1.250
7.450,549.0E-3,1.261
7.683,538.9E-3,1.271
7.915,528.8E-3,1.282
8.148,518.9E-3,1.292
8.380,509.0E-3,1.302
8.613,499.2E-3,1.312
8.845,489.5E-3,1.322
9.077,479.9E-3,1.332
9.308,470.4E-3,1.342
9.540,461.0E-3,1.351
9.772,451.7E-3,1.361
10.00,442.5E-3,1.370
10.23,433.4E-3,1.380
10.47,424.4E-3,1.389
10.70,415.4E-3,1.398
10.93,406.6E-3,1.407
11.16,397.9E-3,1.416
11.39,389.4E-3,1.425
11.62,380.9E-3,1.434
11.85,372.5E-3,1.442
12.08,364.3E-3,1.451
12.31,356.1E-3,1.459
12.55,348.1E-3,1.467
12.78,340.2E-3,1.475
13.01,332.4E-3,1.483
13.24,324.7E-3,1.491
13.47,317.2E-3,1.499
13.70,309.8E-3,1.507
13.93,302.5E-3,1.514
14.16,295.3E-3,1.521
14.39,288.3E-3,1.529
14.62,281.4E-3,1.536
14.85,274.6E-3,1.543
15.08,267.9E-3,1.550
15.31,261.4E-3,1.556
15.54,255.0E-3,1.563
15.77,248.8E-3,1.569
16.00,242.7E-3,1.575
16.23,236.7E-3,1.582
16.46,230.9E-3,1.588
16.69,225.2E-3,1.593
16.92,219.6E-3,1.599
17.15,214.2E-3,1.605
17.38,209.0E-3,1.610
17.61,203.8E-3,1.615
17.84,198.9E-3,1.620
18.07,194.0E-3,1.625
18.30,189.4E-3,1.630
18.53,184.8E-3,1.635
18.76,180.4E-3,1.639
18.99,176.2E-3,1.644
19.22,172.1E-3,1.648
19.44,168.2E-3,1.652
19.67,164.4E-3,1.656
19.90,160.8E-3,1.659
20.13,157.3E-3,1.663
20.36,154.0E-3,1.666
20.59,150.8E-3,1.670
20.82,147.8E-3,1.673
21.05,145.0E-3,1.675
21.28,142.3E-3,1.678
21.51,139.8E-3,1.681
21.74,137.4E-3,1.683
21.97,135.2E-3,1.686
22.20,133.1E-3,1.688
22.42,131.2E-3,1.690
22.65,129.4E-3,1.691
22.88,127.9E-3,1.693
23.11,126.4E-3,1.694
23.34,125.2E-3,1.696
23.57,124.1E-3,1.697
23.80,123.1E-3,1.698
24.03,122.3E-3,1.699
24.26,121.7E-3,1.699
24.49,121.3E-3,1.700
24.71,121.0E-3,1.700
24.94,120.8E-3,1.700
25.17,120.8E-3,1.700
25.40,121.0E-3,1.700
25.63,121.4E-3,1.699
25.86,121.9E-3,1.699
26.09,122.5E-3,1.698
26.32,123.3E-3,1.697
26.54,124.3E-3,1.696
26.77,125.5E-3,1.695
27.00,126.8E-3,1.694
27.23,128.2E-3,1.692
27.46,129.9E-3,1.690
27.69,131.7E-3,1.689
27.92,133.6E-3,1.687
28.15,135.7E-3,1.684
28.38,138.0E-3,1.682
28.61,140.4E-3,1.679
28.84,143.0E-3,1.677
29.08,145.8E-3,1.674
29.31,148.7E-3,1.671
29.54,151.8E-3,1.668
29.77,155.1E-3,1.664
30.01,158.5E-3,1.661
30.24,162.1E-3,1.657
30.47,165.9E-3,1.653
30.71,169.8E-3,1.649
30.94,173.9E-3,1.645
31.18,178.2E-3,1.640
31.42,182.6E-3,1.636
31.65,187.2E-3,1.631
31.89,192.0E-3,1.626
32.13,197.0E-3,1.621
32.37,202.1E-3,1.616
32.61,207.4E-3,1.610
32.85,212.9E-3,1.605
33.09,218.5E-3,1.599
33.34,224.4E-3,1.593
33.58,230.4E-3,1.587
33.83,236.6E-3,1.580
34.07,243.0E-3,1.574
34.32,249.6E-3,1.567
34.57,256.4E-3,1.560
34.82,263.3E-3,1.553
35.07,270.5E-3,1.545
35.32,277.8E-3,1.538
35.57,285.4E-3,1.530
35.83,293.1E-3,1.522
36.09,301.1E-3,1.514
36.34,309.3E-3,1.505
36.60,317.6E-3,1.497
36.87,326.2E-3,1.488
37.13,335.0E-3,1.479
37.39,344.0E-3,1.469
37.66,353.3E-3,1.460
37.93,362.7E-3,1.450
38.20,372.5E-3,1.440
38.48,382.4E-3,1.430
38.75,392.6E-3,1.419
39.03,403.0E-3,1.409
39.32,413.7E-3,1.398
39.60,424.7E-3,1.386
39.89,435.9E-3,1.375
40.18,447.4E-3,1.363
40.47,459.2E-3,1.351
40.77,471.3E-3,1.338
41.07,483.7E-3,1.326
41.38,496.5E-3,1.312
41.69,509.5E-3,1.299
42.00,522.9E-3,1.285
42.33,536.7E-3,1.271
42.65,550.9E-3,1.256
42.98,565.4E-3,1.241
43.32,580.4E-3,1.226
43.67,595.9E-3,1.210
44.02,611.9E-3,1.194
44.38,628.3E-3,1.177
44.75,645.4E-3,1.159
45.13,663.1E-3,1.141
45.52,681.5E-3,1.122
45.93,700.7E-3,1.102
46.35,720.7E-3,1.082
46.80,741.8E-3,1.060
47.26,764.1E-3,1.037
47.75,787.8E-3,1.013
48.28,813.4E-3,986.3E-3
48.86,841.4E-3,957.4E-3
49.50,873.1E-3,924.9E-3
50.28,910.8E-3,886.1E-3
51.28,959.6E-3,835.9E-3
52.28,1.008,786.0E-3
53.12,1.049,744.1E-3
53.81,1.082,710.3E-3
54.40,1.110,681.6E-3
54.93,1.134,656.2E-3
55.41,1.157,633.5E-3
55.85,1.177,612.6E-3
56.27,1.196,593.0E-3
56.67,1.214,574.7E-3
57.05,1.231,557.2E-3
57.42,1.247,540.5E-3
57.78,1.263,524.5E-3
58.12,1.278,509.1E-3
58.47,1.292,494.3E-3
58.80,1.306,479.9E-3
59.12,1.319,466.0E-3
59.45,1.333,452.6E-3
59.76,1.345,439.6E-3
60.07,1.358,426.9E-3
60.38,1.370,414.6E-3
60.68,1.381,402.7E-3
60.97,1.392,391.1E-3
61.27,1.403,379.8E-3
61.56,1.414,368.9E-3
61.84,1.425,358.2E-3
62.12,1.435,347.8E-3
62.40,1.444,337.7E-3
62.68,1.454,327.9E-3
62.96,1.463,318.3E-3
63.23,1.472,309.0E-3
63.50,1.481,299.9E-3
63.77,1.490,291.1E-3
64.03,1.498,282.5E-3
64.30,1.506,274.2E-3
64.56,1.514,266.1E-3
64.82,1.522,258.2E-3
65.08,1.529,250.5E-3
65.33,1.537,243.1E-3
65.59,1.544,235.8E-3
65.84,1.551,228.8E-3
66.09,1.557,222.0E-3
66.35,1.564,215.4E-3
66.59,1.570,209.0E-3
66.84,1.576,202.8E-3
67.09,1.582,196.8E-3
67.34,1.588,191.0E-3
67.58,1.593,185.4E-3
67.82,1.598,179.9E-3
68.07,1.603,174.7E-3
68.31,1.608,169.7E-3
68.55,1.613,164.8E-3
68.79,1.618,160.1E-3
69.03,1.622,155.6E-3
69.27,1.626,151.3E-3
69.51,1.630,147.2E-3
69.74,1.634,143.3E-3
69.98,1.638,139.5E-3
70.21,1.641,135.9E-3
70.45,1.645,132.5E-3
70.68,1.648,129.2E-3
70.92,1.651,126.2E-3
71.15,1.654,123.3E-3
71.38,1.656,120.6E-3
71.62,1.659,118.0E-3
71.85,1.661,115.6E-3
72.08,1.663,113.4E-3
72.31,1.665,111.4E-3
72.54,1.667,109.5E-3
72.77,1.669,107.8E-3
73.00,1.670,106.3E-3
73.23,1.672,104.9E-3
73.46,1.673,103.7E-3
73.69,1.674,102.7E-3
73.92,1.675,101.8E-3
74.15,1.675,101.1E-3
74.38,1.676,100.6E-3
74.61,1.676,100.2E-3
74.84,1.677,100.0E-3
75.07,1.677,100.0E-3
75.30,1.677,100.1E-3
75.53,1.676,100.4E-3
75.75,1.676,100.9E-3
75.98,1.675,101.5E-3
76.21,1.674,102.3E-3
76.44,1.674,103.3E-3
76.67,1.672,104.4E-3
76.90,1.671,105.7E-3
77.13,1.670,107.1E-3
77.36,1.668,108.8E-3
77.59,1.667,110.6E-3
77.82,1.665,112.5E-3
78.05,1.663,114.6E-3
78.28,1.660,116.9E-3
78.51,1.658,119.4E-3
78.74,1.656,122.0E-3
78.97,1.653,124.8E-3
79.20,1.650,127.7E-3
79.43,1.647,130.9E-3
79.67,1.644,134.2E-3
79.90,1.640,137.6E-3
80.13,1.637,141.3E-3
80.37,1.633,145.1E-3
80.60,1.629,149.1E-3
80.84,1.625,153.2E-3
81.07,1.621,157.5E-3
81.31,1.617,162.0E-3
81.55,1.612,166.7E-3
81.78,1.608,171.6E-3
82.02,1.603,176.6E-3
82.26,1.598,181.8E-3
82.50,1.592,187.2E-3
82.74,1.587,192.8E-3
82.98,1.581,198.6E-3
83.23,1.576,204.5E-3
83.47,1.570,210.6E-3
83.71,1.564,217.0E-3
83.96,1.557,223.5E-3
84.21,1.551,230.2E-3
84.46,1.544,237.1E-3
84.70,1.537,244.2E-3
84.95,1.530,251.4E-3
85.21,1.523,258.9E-3
85.46,1.515,266.6E-3
85.71,1.508,274.5E-3
85.97,1.500,282.6E-3
86.23,1.492,290.9E-3
86.49,1.484,299.5E-3
86.75,1.475,308.2E-3
87.01,1.466,317.2E-3
87.27,1.458,326.4E-3
87.54,1.448,335.8E-3
87.81,1.439,345.4E-3
88.08,1.429,355.3E-3
88.35,1.420,365.5E-3
88.63,1.409,375.8E-3
88.91,1.399,386.5E-3
89.19,1.389,397.4E-3
89.47,1.378,408.5E-3
89.76,1.367,420.0E-3
90.05,1.355,431.7E-3
90.34,1.344,443.7E-3
90.64,1.332,456.0E-3
90.94,1.319,468.6E-3
91.24,1.307,481.6E-3
91.55,1.294,494.9E-3
91.86,1.281,508.5E-3
92.18,1.267,522.5E-3
92.50,1.253,536.9E-3
92.83,1.239,551.7E-3
93.17,1.224,567.0E-3
93.51,1.209,582.7E-3
93.86,1.193,598.9E-3
94.22,1.177,615.6E-3
94.58,1.160,632.9E-3
94.96,1.142,650.8E-3
95.35,1.124,669.4E-3
95.75,1.106,688.7E-3
96.16,1.086,708.9E-3
96.59,1.065,730.1E-3
97.05,1.044,752.4E-3
97.53,1.021,776.2E-3
98.04,995.8E-3,801.6E-3
98.59,969.0E-3,829.2E-3
99.20,939.2E-3,859.8E-3
99.60,919.7E-3,879.9E-3
100.0,900.1E-3,900.0E-3
