time,v_in,v_out
0.000,900.0E-3,900.0E-3
24.88E-3,901.3E-3,899.6E-3
52.85E-3,902.7E-3,898.9E-3
92.34E-3,904.6E-3,897.5E-3
124.2E-3,906.2E-3,896.3E-3
183.1E-3,909.2E-3,893.7E-3
235.8E-3,911.9E-3,891.2E-3
294.3E-3,914.8E-3,888.4E-3
368.4E-3,918.5E-3,884.9E-3
471.3E-3,923.7E-3,879.9E-3
643.9E-3,932.4E-3,871.7E-3
865.1E-3,943.5E-3,861.1E-3
1.104,955.4E-3,849.8E-3
1.352,967.9E-3,837.9E-3
1.603,980.5E-3,826.0E-3
1.855,993.0E-3,814.0E-3
2.104,1.005,802.2E-3
2.352,1.018,790.4E-3
2.598,1.030,778.8E-3
2.842,1.042,767.3E-3
3.084,1.054,755.9E-3
3.326,1.066,744.6E-3
3.566,1.078,733.4E-3
3.805,1.089,722.3E-3
4.043,1.101,711.3E-3
4.281,1.113,700.3E-3
4.517,1.124,689.4E-3
4.754,1.135,678.5E-3
4.990,1.147,667.8E-3
5.225,1.158,657.1E-3
5.460,1.169,646.5E-3
5.695,1.180,635.9E-3
5.930,1.191,625.5E-3
6.164,1.202,615.0E-3
6.398,1.213,604.7E-3
6.631,1.224,594.5E-3
6.865,1.234,584.3E-3
7.098,1.245,574.2E-3
7.331,1.256,564.1E-3
7.564,1.266,554.2E-3
7.797,1.276,544.3E-3
8.029,1.287,534.5E-3
8.262,1.297,524.8E-3
8.494,1.307,515.2E-3
8.726,1.317,505.7E-3
8.958,1.327,496.3E-3
9.190,1.337,486.9E-3
9.422,1.346,477.7E-3
9.654,1.356,468.5E-3
9.885,1.366,459.4E-3
10.12,1.375,450.5E-3
10.35,1.384,441.6E-3
10.58,1.393,432.8E-3
10.81,1.403,424.1E-3
11.04,1.412,415.6E-3
11.27,1.420,407.1E-3
11.50,1.429,398.8E-3
11.74,1.438,390.5E-3
11.97,1.446,382.4E-3
12.20,1.455,374.4E-3
12.43,1.463,366.4E-3
12.66,1.471,358.6E-3
12.89,1.479,351.0E-3
13.12,1.487,343.4E-3
13.35,1.495,335.9E-3
13.58,1.503,328.6E-3
13.81,1.510,321.4E-3
14.04,1.518,314.3E-3
14.27,1.525,307.4E-3
14.50,1.532,300.5E-3
14.73,1.539,293.8E-3
14.96,1.546,287.3E-3
15.19,1.553,280.8E-3
15.42,1.559,274.5E-3
15.65,1.566,268.3E-3
15.88,1.572,262.2E-3
16.11,1.578,256.3E-3
16.34,1.585,250.5E-3
16.57,1.590,244.9E-3
16.80,1.596,239.4E-3
17.03,1.602,234.0E-3
17.26,1.607,228.8E-3
17.49,1.613,223.7E-3
17.72,1.618,218.7E-3
17.95,1.623,213.9E-3
18.18,1.628,209.3E-3
18.41,1.632,204.8E-3
18.64,1.637,200.4E-3
18.87,1.641,196.2E-3
19.10,1.646,192.1E-3
19.33,1.650,188.1E-3
19.56,1.654,184.4E-3
19.79,1.657,180.7E-3
20.02,1.661,177.2E-3
20.25,1.665,173.9E-3
20.47,1.668,170.7E-3
20.70,1.671,167.7E-3
20.93,1.674,164.8E-3
21.16,1.677,162.1E-3
21.39,1.680,159.5E-3
21.62,1.682,157.1E-3
21.85,1.684,154.8E-3
22.08,1.687,152.7E-3
22.31,1.689,150.8E-3
22.54,1.690,149.0E-3
22.77,1.692,147.3E-3
23.00,1.694,145.8E-3
23.22,1.695,144.5E-3
23.45,1.696,143.3E-3
23.68,1.697,142.3E-3
23.91,1.698,141.4E-3
24.14,1.699,140.7E-3
24.37,1.699,140.2E-3
24.60,1.700,139.8E-3
24.83,1.700,139.6E-3
25.06,1.700,139.5E-3
25.28,1.700,139.6E-3
25.51,1.700,139.8E-3
25.74,1.699,140.2E-3
25.97,1.699,140.8E-3
26.20,1.698,141.5E-3
26.43,1.697,142.3E-3
26.66,1.696,143.4E-3
26.89,1.694,144.5E-3
27.12,1.693,145.9E-3
27.34,1.691,147.4E-3
27.57,1.690,149.0E-3
27.80,1.688,150.8E-3
28.03,1.686,152.8E-3
28.26,1.683,154.9E-3
28.50,1.681,157.2E-3
28.73,1.678,159.7E-3
28.96,1.675,162.3E-3
29.19,1.672,165.1E-3
29.42,1.669,168.0E-3
29.65,1.666,171.1E-3
29.89,1.663,174.3E-3
30.12,1.659,177.7E-3
30.35,1.655,181.3E-3
30.59,1.651,185.1E-3
30.82,1.647,189.0E-3
31.06,1.643,193.0E-3
31.30,1.638,197.3E-3
31.53,1.634,201.7E-3
31.77,1.629,206.3E-3
32.01,1.624,211.0E-3
32.25,1.618,215.9E-3
32.49,1.613,221.0E-3
32.73,1.608,226.3E-3
32.97,1.602,231.7E-3
33.21,1.596,237.3E-3
33.46,1.590,243.1E-3
33.70,1.583,249.1E-3
33.95,1.577,255.2E-3
34.19,1.570,261.5E-3
34.44,1.563,268.0E-3
34.69,1.556,274.7E-3
34.94,1.549,281.6E-3
35.19,1.542,288.7E-3
35.44,1.534,296.0E-3
35.70,1.526,303.4E-3
35.95,1.518,311.1E-3
36.21,1.510,319.0E-3
36.47,1.501,327.0E-3
36.73,1.492,335.3E-3
36.99,1.483,343.8E-3
37.26,1.474,352.5E-3
37.53,1.465,361.4E-3
37.79,1.455,370.5E-3
38.06,1.445,379.9E-3
38.34,1.435,389.5E-3
38.61,1.425,399.3E-3
38.89,1.414,409.4E-3
39.17,1.403,419.7E-3
39.45,1.392,430.2E-3
39.74,1.381,441.1E-3
40.03,1.369,452.2E-3
40.32,1.357,463.5E-3
40.62,1.345,475.2E-3
40.92,1.332,487.2E-3
41.22,1.319,499.4E-3
41.53,1.306,512.0E-3
41.84,1.292,525.0E-3
42.16,1.278,538.2E-3
42.48,1.264,551.9E-3
42.81,1.249,565.9E-3
43.15,1.234,580.3E-3
43.49,1.218,595.2E-3
43.84,1.202,610.6E-3
44.19,1.185,626.4E-3
44.56,1.168,642.8E-3
44.94,1.150,659.7E-3
45.32,1.132,677.4E-3
45.72,1.112,695.7E-3
46.14,1.092,714.8E-3
46.57,1.071,734.9E-3
47.02,1.049,756.1E-3
47.50,1.025,778.5E-3
48.01,1.000,802.5E-3
48.56,972.5E-3,828.6E-3
49.16,942.1E-3,857.6E-3
49.86,907.0E-3,890.9E-3
50.74,862.7E-3,933.0E-3
51.74,812.6E-3,980.7E-3
52.73,763.3E-3,1.028
53.50,725.3E-3,1.064
54.14,694.4E-3,1.093
54.70,667.4E-3,1.119
55.20,643.4E-3,1.142
55.66,621.7E-3,1.162
56.08,601.5E-3,1.181
56.49,582.7E-3,1.199
56.88,564.8E-3,1.216
57.26,547.8E-3,1.233
57.62,531.5E-3,1.248
57.97,515.8E-3,1.263
58.32,500.7E-3,1.277
58.65,486.2E-3,1.291
58.98,472.1E-3,1.305
59.30,458.5E-3,1.318
59.62,445.3E-3,1.330
59.93,432.5E-3,1.342
60.24,420.0E-3,1.354
60.54,407.9E-3,1.366
60.84,396.2E-3,1.377
61.14,384.8E-3,1.388
61.43,373.7E-3,1.399
61.72,362.9E-3,1.409
62.00,352.4E-3,1.419
62.28,342.1E-3,1.429
62.56,332.2E-3,1.438
62.84,322.5E-3,1.447
63.11,313.1E-3,1.456
63.38,303.9E-3,1.465
63.65,295.0E-3,1.474
63.92,286.3E-3,1.482
64.18,277.8E-3,1.490
64.44,269.6E-3,1.498
64.70,261.6E-3,1.505
64.96,253.9E-3,1.513
65.22,246.3E-3,1.520
65.48,239.0E-3,1.527
65.73,231.9E-3,1.534
65.98,225.0E-3,1.540
66.23,218.3E-3,1.547
66.49,211.8E-3,1.553
66.73,205.5E-3,1.559
66.98,199.4E-3,1.565
67.23,193.5E-3,1.570
67.47,187.8E-3,1.576
67.72,182.3E-3,1.581
67.96,177.0E-3,1.586
68.20,171.9E-3,1.591
68.44,166.9E-3,1.596
68.68,162.2E-3,1.600
68.92,157.6E-3,1.605
69.16,153.2E-3,1.609
69.40,149.0E-3,1.613
69.64,145.0E-3,1.617
69.87,141.1E-3,1.621
70.11,137.5E-3,1.624
70.35,134.0E-3,1.628
70.58,130.6E-3,1.631
70.82,127.5E-3,1.634
71.05,124.5E-3,1.637
71.28,121.7E-3,1.639
71.51,119.1E-3,1.642
71.75,116.7E-3,1.644
71.98,114.4E-3,1.646
72.21,112.3E-3,1.648
72.44,110.3E-3,1.650
72.67,108.5E-3,1.652
72.90,106.9E-3,1.654
73.13,105.5E-3,1.655
73.36,104.2E-3,1.656
73.59,103.1E-3,1.657
73.82,102.2E-3,1.658
74.05,101.4E-3,1.659
74.28,100.8E-3,1.660
74.51,100.4E-3,1.660
74.74,100.1E-3,1.660
74.97,100.0E-3,1.660
75.20,100.1E-3,1.660
75.43,100.3E-3,1.660
75.65,100.7E-3,1.660
75.88,101.2E-3,1.659
76.11,101.9E-3,1.659
76.34,102.8E-3,1.658
76.57,103.9E-3,1.657
76.80,105.1E-3,1.656
77.03,106.5E-3,1.655
77.26,108.0E-3,1.653
77.49,109.7E-3,1.652
77.72,111.6E-3,1.650
77.95,113.7E-3,1.648
78.18,115.9E-3,1.646
78.41,118.3E-3,1.644
78.64,120.8E-3,1.641
78.87,123.5E-3,1.639
79.10,126.4E-3,1.636
79.33,129.5E-3,1.633
79.56,132.7E-3,1.630
79.80,136.1E-3,1.627
80.03,139.6E-3,1.624
80.26,143.4E-3,1.620
80.50,147.3E-3,1.616
80.73,151.4E-3,1.613
80.97,155.6E-3,1.609
81.21,160.0E-3,1.604
81.44,164.6E-3,1.600
81.68,169.4E-3,1.596
81.92,174.4E-3,1.591
82.16,179.5E-3,1.586
82.40,184.8E-3,1.581
82.64,190.3E-3,1.576
82.88,196.0E-3,1.570
83.12,201.9E-3,1.565
83.36,207.9E-3,1.559
83.61,214.2E-3,1.553
83.85,220.6E-3,1.547
84.10,227.2E-3,1.541
84.35,234.0E-3,1.534
84.59,241.0E-3,1.528
84.84,248.2E-3,1.521
85.10,255.6E-3,1.514
85.35,263.2E-3,1.507
85.60,271.0E-3,1.499
85.86,279.0E-3,1.492
86.11,287.2E-3,1.484
86.37,295.7E-3,1.476
86.63,304.3E-3,1.468
86.89,313.2E-3,1.460
87.16,322.3E-3,1.451
87.42,331.6E-3,1.442
87.69,341.1E-3,1.433
87.96,350.9E-3,1.424
88.23,361.0E-3,1.414
88.51,371.2E-3,1.405
88.78,381.7E-3,1.395
89.06,392.5E-3,1.384
89.35,403.6E-3,1.374
89.63,414.9E-3,1.363
89.92,426.5E-3,1.352
90.21,438.4E-3,1.341
90.51,450.6E-3,1.329
90.80,463.0E-3,1.317
91.11,475.8E-3,1.305
91.41,489.0E-3,1.293
91.72,502.5E-3,1.280
92.04,516.3E-3,1.267
92.36,530.5E-3,1.253
92.69,545.2E-3,1.240
93.02,560.2E-3,1.225
93.36,575.7E-3,1.211
93.70,591.7E-3,1.195
94.06,608.1E-3,1.180
94.42,625.2E-3,1.164
94.79,642.8E-3,1.147
95.17,661.1E-3,1.129
95.57,680.1E-3,1.111
95.98,699.9E-3,1.093
96.40,720.6E-3,1.073
96.84,742.4E-3,1.052
97.31,765.5E-3,1.030
97.81,790.1E-3,1.007
98.34,816.7E-3,981.6E-3
98.92,845.8E-3,953.9E-3
99.46,872.9E-3,928.2E-3
100.0,900.0E-3,902.5E-3
