time (s),/Va (V),/Vout (V)
0.000,0.000,28.18E-3
7.000E-3,0.000,28.18E-3
21.00E-3,0.000,28.18E-3
49.00E-3,0.000,28.18E-3
105.0E-3,0.000,28.18E-3
175.0E-3,0.000,28.18E-3
245.0E-3,0.000,28.18E-3
315.0E-3,0.000,28.18E-3
385.0E-3,0.000,28.18E-3
455.0E-3,0.000,28.18E-3
525.0E-3,0.000,28.18E-3
595.0E-3,0.000,28.18E-3
665.0E-3,0.000,28.18E-3
735.0E-3,0.000,28.18E-3
805.0E-3,0.000,28.18E-3
875.0E-3,0.000,28.18E-3
945.0E-3,0.000,28.18E-3
1.000,0.000,28.18E-3
1.000,1.508E-3,28.18E-3
1.000,2.674E-3,28.18E-3
1.000,5.006E-3,28.18E-3
1.000,9.669E-3,28.18E-3
1.000,18.99E-3,28.18E-3
1.000,37.65E-3,28.18E-3
1.000,74.95E-3,28.21E-3
1.000,149.6E-3,28.29E-3
1.000,244.4E-3,28.46E-3
1.000,344.8E-3,28.68E-3
1.000,453.3E-3,28.96E-3
1.000,572.1E-3,29.30E-3
1.000,705.3E-3,29.69E-3
1.000,858.4E-3,30.15E-3
1.000,1.039,30.70E-3
1.000,1.260,31.36E-3
1.000,1.544,32.18E-3
1.000,1.672,32.55E-3
1.000,1.800,32.91E-3
1.000,1.800,32.91E-3
1.000,1.800,32.92E-3
1.000,1.800,32.94E-3
1.000,1.800,32.97E-3
1.000,1.800,33.03E-3
1.000,1.800,33.13E-3
1.000,1.800,33.30E-3
1.000,1.800,33.44E-3
1.000,1.800,33.53E-3
1.000,1.800,33.60E-3
1.000,1.800,33.64E-3
1.000,1.800,33.67E-3
1.000,1.800,33.69E-3
1.000,1.800,33.70E-3
1.000,1.800,33.71E-3
1.000,1.800,33.71E-3
1.000,1.800,33.71E-3
1.000,1.800,33.71E-3
1.000,1.800,33.71E-3
1.000,1.800,33.72E-3
1.000,1.800,33.72E-3
1.000,1.800,33.74E-3
1.000,1.800,33.77E-3
1.000,1.800,33.84E-3
1.000,1.800,33.98E-3
1.000,1.800,34.24E-3
1.000,1.800,34.78E-3
1.001,1.800,35.85E-3
1.001,1.800,38.00E-3
1.003,1.800,42.27E-3
1.006,1.800,50.77E-3
1.012,1.800,67.61E-3
1.014,1.800,72.91E-3
1.017,1.800,83.46E-3
1.019,1.800,88.83E-3
1.023,1.800,99.49E-3
1.025,1.800,105.2E-3
1.029,1.800,116.6E-3
1.032,1.800,122.8E-3
1.036,1.800,135.0E-3
1.039,1.800,141.5E-3
1.044,1.800,154.5E-3
1.046,1.800,161.4E-3
1.051,1.800,175.1E-3
1.054,1.800,182.4E-3
1.060,1.800,196.8E-3
1.063,1.800,204.5E-3
1.069,1.800,219.6E-3
1.072,1.800,227.6E-3
1.079,1.800,243.4E-3
1.082,1.800,251.7E-3
1.089,1.800,268.1E-3
1.092,1.800,276.7E-3
1.097,1.800,286.7E-3
1.101,1.800,295.8E-3
1.105,1.800,305.2E-3
1.109,1.800,314.6E-3
1.113,1.800,324.1E-3
1.117,1.800,333.7E-3
1.122,1.800,343.4E-3
1.126,1.800,353.2E-3
1.131,1.800,363.1E-3
1.135,1.800,373.1E-3
1.140,1.800,383.2E-3
1.145,1.800,393.4E-3
1.150,1.800,403.7E-3
1.155,1.800,414.1E-3
1.160,1.800,424.5E-3
1.165,1.800,435.0E-3
1.170,1.800,445.6E-3
1.175,1.800,456.3E-3
1.181,1.800,467.1E-3
1.186,1.800,477.9E-3
1.192,1.800,488.8E-3
1.198,1.800,499.8E-3
1.204,1.800,510.9E-3
1.210,1.800,522.0E-3
1.216,1.800,533.1E-3
1.222,1.800,544.3E-3
1.228,1.800,555.6E-3
1.235,1.800,566.9E-3
1.241,1.800,578.3E-3
1.248,1.800,589.7E-3
1.255,1.800,601.2E-3
1.262,1.800,612.7E-3
1.269,1.800,624.3E-3
1.275,1.800,634.7E-3
1.283,1.800,646.4E-3
1.289,1.800,657.0E-3
1.297,1.800,668.8E-3
1.304,1.800,679.4E-3
1.312,1.800,691.2E-3
1.319,1.800,701.9E-3
1.326,1.800,712.1E-3
1.334,1.800,723.8E-3
1.342,1.800,734.4E-3
1.349,1.800,744.5E-3
1.356,1.800,754.8E-3
1.364,1.800,764.9E-3
1.371,1.800,775.0E-3
1.379,1.800,785.1E-3
1.387,1.800,795.2E-3
1.395,1.800,805.3E-3
1.403,1.800,815.4E-3
1.411,1.800,825.4E-3
1.419,1.800,835.4E-3
1.427,1.800,845.5E-3
1.436,1.800,855.5E-3
1.444,1.800,865.5E-3
1.453,1.800,875.5E-3
1.462,1.800,885.4E-3
1.471,1.800,895.3E-3
1.480,1.800,905.2E-3
1.490,1.800,915.1E-3
1.499,1.800,925.0E-3
1.509,1.800,934.8E-3
1.518,1.800,944.6E-3
1.528,1.800,954.3E-3
1.538,1.800,964.1E-3
1.548,1.800,973.7E-3
1.559,1.800,983.4E-3
1.569,1.800,993.0E-3
1.580,1.800,1.003
1.591,1.800,1.012
1.602,1.800,1.021
1.613,1.800,1.031
1.624,1.800,1.040
1.636,1.800,1.050
1.647,1.800,1.059
1.659,1.800,1.068
1.671,1.800,1.077
1.684,1.800,1.086
1.696,1.800,1.095
1.709,1.800,1.104
1.722,1.800,1.113
1.735,1.800,1.122
1.748,1.800,1.130
1.762,1.800,1.139
1.775,1.800,1.148
1.789,1.800,1.156
1.804,1.800,1.165
1.818,1.800,1.173
1.833,1.800,1.181
1.848,1.800,1.189
1.863,1.800,1.197
1.879,1.800,1.205
1.895,1.800,1.213
1.911,1.800,1.221
1.927,1.800,1.229
1.944,1.800,1.236
1.961,1.800,1.244
1.978,1.800,1.251
1.996,1.800,1.259
2.000,1.800,1.261
2.000,1.798,1.261
2.000,1.795,1.261
2.000,1.788,1.261
2.000,1.774,1.261
2.000,1.746,1.261
2.000,1.690,1.260
2.000,1.579,1.260
2.000,1.356,1.260
2.000,1.077,1.259
2.000,989.5E-3,1.259
2.000,957.2E-3,1.258
2.000,928.2E-3,1.258
2.000,892.8E-3,1.258
2.000,867.8E-3,1.257
2.000,847.5E-3,1.257
2.000,829.1E-3,1.256
2.000,811.8E-3,1.255
2.000,794.0E-3,1.254
2.000,773.5E-3,1.251
2.000,746.7E-3,1.247
2.000,722.5E-3,1.243
2.000,703.3E-3,1.238
2.000,685.2E-3,1.233
2.000,667.0E-3,1.227
2.000,647.6E-3,1.220
2.000,626.1E-3,1.211
2.000,601.6E-3,1.201
2.000,573.2E-3,1.187
2.000,539.6E-3,1.168
2.000,501.1E-3,1.145
2.000,462.0E-3,1.120
2.000,422.2E-3,1.092
2.000,381.1E-3,1.062
2.000,338.5E-3,1.029
2.000,294.1E-3,993.6E-3
2.000,247.4E-3,954.7E-3
2.000,198.3E-3,912.6E-3
2.000,146.4E-3,866.9E-3
2.000,91.49E-3,817.4E-3
2.000,45.74E-3,775.5E-3
2.000,22.87E-3,754.3E-3
2.000,0.000,732.9E-3
2.000,0.000,731.3E-3
2.000,0.000,729.2E-3
2.000,0.000,725.8E-3
2.000,0.000,719.4E-3
2.000,0.000,710.3E-3
2.000,0.000,701.8E-3
2.000,0.000,692.8E-3
2.000,0.000,683.1E-3
2.000,0.000,672.5E-3
2.000,0.000,660.8E-3
2.000,0.000,648.1E-3
2.000,0.000,634.3E-3
2.000,0.000,619.3E-3
2.000,0.000,603.3E-3
2.000,0.000,586.4E-3
2.000,0.000,568.5E-3
2.000,0.000,549.8E-3
2.000,0.000,530.5E-3
2.000,0.000,510.8E-3
2.000,0.000,490.9E-3
2.000,0.000,473.0E-3
2.000,0.000,457.0E-3
2.000,0.000,442.5E-3
2.000,0.000,429.3E-3
2.000,0.000,417.3E-3
2.000,0.000,406.3E-3
2.000,0.000,396.3E-3
2.000,0.000,387.1E-3
2.000,0.000,378.7E-3
2.000,0.000,371.1E-3
2.000,0.000,364.1E-3
2.000,0.000,357.6E-3
2.000,0.000,351.7E-3
2.000,0.000,346.3E-3
2.000,0.000,341.3E-3
2.000,0.000,336.6E-3
2.000,0.000,332.3E-3
2.000,0.000,328.2E-3
2.000,0.000,324.2E-3
2.000,0.000,320.5E-3
2.000,0.000,316.8E-3
2.000,0.000,313.2E-3
2.000,0.000,309.5E-3
2.000,0.000,305.8E-3
2.000,0.000,302.1E-3
2.000,0.000,298.2E-3
2.000,0.000,294.2E-3
2.000,0.000,290.2E-3
2.000,0.000,286.1E-3
2.000,0.000,282.0E-3
2.000,0.000,277.9E-3
2.000,0.000,273.8E-3
2.000,0.000,269.7E-3
2.000,0.000,265.7E-3
2.000,0.000,261.6E-3
2.000,0.000,257.6E-3
2.000,0.000,253.6E-3
2.000,0.000,249.6E-3
2.000,0.000,245.6E-3
2.000,0.000,241.7E-3
2.000,0.000,237.7E-3
2.000,0.000,233.8E-3
2.000,0.000,229.9E-3
2.000,0.000,225.9E-3
2.000,0.000,222.0E-3
2.000,0.000,218.1E-3
2.000,0.000,214.3E-3
2.000,0.000,210.4E-3
2.000,0.000,206.5E-3
2.000,0.000,202.7E-3
2.000,0.000,198.8E-3
2.000,0.000,195.0E-3
2.000,0.000,191.2E-3
2.000,0.000,187.4E-3
2.000,0.000,183.6E-3
2.000,0.000,179.8E-3
2.000,0.000,176.0E-3
2.000,0.000,172.3E-3
2.000,0.000,168.5E-3
2.000,0.000,164.8E-3
2.000,0.000,161.0E-3
2.000,0.000,157.3E-3
2.000,0.000,153.6E-3
2.000,0.000,149.9E-3
2.000,0.000,146.2E-3
2.000,0.000,142.5E-3
2.000,0.000,138.8E-3
2.000,0.000,135.1E-3
2.000,0.000,131.5E-3
2.000,0.000,127.8E-3
2.001,0.000,124.2E-3
2.001,0.000,120.6E-3
2.001,0.000,117.0E-3
2.001,0.000,113.4E-3
2.001,0.000,109.8E-3
2.001,0.000,106.2E-3
2.001,0.000,102.7E-3
2.001,0.000,99.17E-3
2.002,0.000,95.66E-3
2.002,0.000,92.18E-3
2.002,0.000,88.73E-3
2.002,0.000,85.30E-3
2.003,0.000,81.90E-3
2.003,0.000,78.54E-3
2.003,0.000,75.21E-3
2.004,0.000,71.93E-3
2.004,0.000,68.69E-3
2.005,0.000,65.51E-3
2.006,0.000,62.39E-3
2.007,0.000,59.34E-3
2.008,0.000,56.37E-3
2.009,0.000,53.48E-3
2.010,0.000,50.69E-3
2.011,0.000,48.01E-3
2.013,0.000,45.46E-3
2.015,0.000,43.05E-3
2.017,0.000,40.78E-3
2.020,0.000,38.69E-3
2.022,0.000,36.78E-3
2.026,0.000,35.06E-3
2.029,0.000,33.54E-3
2.034,0.000,32.23E-3
2.039,0.000,31.13E-3
2.044,0.000,30.24E-3
2.051,0.000,29.54E-3
2.058,0.000,29.01E-3
2.065,0.000,28.71E-3
2.075,0.000,28.45E-3
2.086,0.000,28.30E-3
2.098,0.000,28.22E-3
2.115,0.000,28.18E-3
2.139,0.000,28.17E-3
2.170,0.000,28.17E-3
2.218,0.000,28.17E-3
2.288,0.000,28.18E-3
2.358,0.000,28.18E-3
2.428,0.000,28.18E-3
2.498,0.000,28.18E-3
2.568,0.000,28.18E-3
2.638,0.000,28.18E-3
2.708,0.000,28.18E-3
2.778,0.000,28.18E-3
2.848,0.000,28.18E-3
2.918,0.000,28.18E-3
2.988,0.000,28.18E-3
3.000,0.000,28.18E-3
3.000,1.508E-3,28.18E-3
3.000,4.525E-3,28.18E-3
3.000,10.56E-3,28.18E-3
3.000,22.63E-3,28.18E-3
3.000,46.76E-3,28.20E-3
3.000,95.03E-3,28.27E-3
3.000,191.6E-3,28.48E-3
3.000,345.8E-3,28.92E-3
3.000,530.5E-3,29.52E-3
3.000,715.3E-3,30.12E-3
3.000,807.6E-3,30.41E-3
3.000,900.0E-3,30.70E-3
3.000,900.0E-3,30.71E-3
3.000,900.0E-3,30.72E-3
3.000,900.0E-3,30.74E-3
3.000,900.0E-3,30.77E-3
3.000,900.0E-3,30.83E-3
3.000,900.0E-3,30.92E-3
3.000,900.0E-3,31.04E-3
3.000,900.0E-3,31.13E-3
3.000,900.0E-3,31.16E-3
3.000,900.0E-3,31.16E-3
3.000,900.0E-3,31.16E-3
3.000,900.0E-3,31.15E-3
3.000,900.0E-3,31.16E-3
3.000,900.0E-3,31.16E-3
3.000,900.0E-3,31.17E-3
3.000,900.0E-3,31.19E-3
3.000,900.0E-3,31.22E-3
3.000,900.0E-3,31.29E-3
3.000,900.0E-3,31.43E-3
3.000,900.0E-3,31.70E-3
3.001,900.0E-3,32.25E-3
3.001,900.0E-3,33.35E-3
3.002,900.0E-3,35.54E-3
3.004,900.0E-3,39.91E-3
3.009,900.0E-3,48.59E-3
3.017,900.0E-3,65.75E-3
3.025,900.0E-3,80.88E-3
3.032,900.0E-3,95.72E-3
3.040,900.0E-3,111.5E-3
3.049,900.0E-3,127.2E-3
3.057,900.0E-3,142.7E-3
3.066,900.0E-3,158.2E-3
3.074,900.0E-3,173.7E-3
3.083,900.0E-3,189.0E-3
3.091,900.0E-3,204.3E-3
3.100,900.0E-3,219.4E-3
3.109,900.0E-3,234.4E-3
3.118,900.0E-3,249.3E-3
3.127,900.0E-3,264.2E-3
3.136,900.0E-3,278.8E-3
3.145,900.0E-3,293.4E-3
3.155,900.0E-3,307.9E-3
3.164,900.0E-3,322.3E-3
3.174,900.0E-3,336.5E-3
3.183,900.0E-3,350.6E-3
3.193,900.0E-3,364.6E-3
3.203,900.0E-3,378.5E-3
3.212,900.0E-3,392.3E-3
3.222,900.0E-3,406.0E-3
3.232,900.0E-3,419.5E-3
3.242,900.0E-3,432.9E-3
3.253,900.0E-3,446.2E-3
3.263,900.0E-3,459.4E-3
3.273,900.0E-3,472.4E-3
3.284,900.0E-3,485.4E-3
3.295,900.0E-3,498.2E-3
3.305,900.0E-3,510.9E-3
3.316,900.0E-3,523.4E-3
3.327,900.0E-3,535.9E-3
3.338,900.0E-3,548.2E-3
3.349,900.0E-3,560.3E-3
3.361,900.0E-3,572.4E-3
3.372,900.0E-3,584.3E-3
3.383,900.0E-3,596.1E-3
3.395,900.0E-3,607.7E-3
3.407,900.0E-3,619.3E-3
3.419,900.0E-3,630.7E-3
3.431,900.0E-3,641.9E-3
3.443,900.0E-3,653.0E-3
3.455,900.0E-3,664.0E-3
3.467,900.0E-3,674.8E-3
3.480,900.0E-3,685.5E-3
3.492,900.0E-3,696.0E-3
3.505,900.0E-3,706.4E-3
3.518,900.0E-3,716.6E-3
3.530,900.0E-3,726.7E-3
3.543,900.0E-3,736.6E-3
3.557,900.0E-3,746.4E-3
3.570,900.0E-3,756.0E-3
3.583,900.0E-3,765.4E-3
3.597,900.0E-3,774.7E-3
3.610,900.0E-3,783.8E-3
3.624,900.0E-3,792.6E-3
3.638,900.0E-3,801.3E-3
3.652,900.0E-3,809.7E-3
3.665,900.0E-3,817.9E-3
3.679,900.0E-3,825.8E-3
3.693,900.0E-3,833.4E-3
3.706,900.0E-3,840.7E-3
3.720,900.0E-3,847.5E-3
3.733,900.0E-3,853.8E-3
3.745,900.0E-3,859.6E-3
3.757,900.0E-3,864.8E-3
3.768,900.0E-3,869.4E-3
3.779,900.0E-3,873.4E-3
3.789,900.0E-3,877.0E-3
3.799,900.0E-3,880.1E-3
3.808,900.0E-3,882.8E-3
3.817,900.0E-3,885.2E-3
3.827,900.0E-3,887.3E-3
3.836,900.0E-3,889.2E-3
3.845,900.0E-3,890.8E-3
3.855,900.0E-3,892.3E-3
3.865,900.0E-3,893.6E-3
3.875,900.0E-3,894.7E-3
3.886,900.0E-3,895.7E-3
3.897,900.0E-3,896.6E-3
3.910,900.0E-3,897.3E-3
3.924,900.0E-3,898.0E-3
3.939,900.0E-3,898.5E-3
3.955,900.0E-3,898.9E-3
3.974,900.0E-3,899.3E-3
3.996,900.0E-3,899.6E-3
4.000,900.0E-3,899.6E-3
4.000,901.5E-3,899.6E-3
4.000,904.5E-3,899.6E-3
4.000,910.6E-3,899.6E-3
4.000,922.6E-3,899.6E-3
4.000,946.8E-3,899.6E-3
4.000,995.0E-3,899.7E-3
4.000,1.092,899.9E-3
4.000,1.246,900.3E-3
4.000,1.432,900.9E-3
4.000,1.616,901.5E-3
4.000,1.708,901.8E-3
4.000,1.800,902.1E-3
4.000,1.800,902.1E-3
4.000,1.800,902.1E-3
4.000,1.800,902.1E-3
4.000,1.800,902.2E-3
4.000,1.800,902.2E-3
4.000,1.800,902.3E-3
4.000,1.800,902.4E-3
4.000,1.800,902.5E-3
4.000,1.800,902.6E-3
4.000,1.800,902.6E-3
4.000,1.800,902.5E-3
4.000,1.800,902.5E-3
4.000,1.800,902.5E-3
4.000,1.800,902.5E-3
4.000,1.800,902.6E-3
4.000,1.800,902.6E-3
4.000,1.800,902.6E-3
4.000,1.800,902.6E-3
4.000,1.800,902.7E-3
4.000,1.800,902.8E-3
4.001,1.800,903.1E-3
4.001,1.800,903.7E-3
4.002,1.800,904.8E-3
4.004,1.800,907.1E-3
4.009,1.800,911.7E-3
4.017,1.800,920.7E-3
4.027,1.800,930.5E-3
4.037,1.800,940.7E-3
4.047,1.800,951.5E-3
4.059,1.800,962.4E-3
4.070,1.800,973.3E-3
4.082,1.800,984.2E-3
4.094,1.800,995.0E-3
4.106,1.800,1.006
4.118,1.800,1.016
4.130,1.800,1.027
4.143,1.800,1.037
4.155,1.800,1.047
4.168,1.800,1.058
4.181,1.800,1.068
4.194,1.800,1.078
4.208,1.800,1.087
4.221,1.800,1.097
4.235,1.800,1.107
4.249,1.800,1.116
4.263,1.800,1.125
4.277,1.800,1.135
4.291,1.800,1.144
4.306,1.800,1.153
4.321,1.800,1.161
4.336,1.800,1.170
4.351,1.800,1.179
4.366,1.800,1.187
4.382,1.800,1.196
4.398,1.800,1.204
4.414,1.800,1.212
4.431,1.800,1.220
4.447,1.800,1.228
4.464,1.800,1.236
4.481,1.800,1.243
4.499,1.800,1.251
4.517,1.800,1.258
4.535,1.800,1.265
4.553,1.800,1.273
4.572,1.800,1.280
4.591,1.800,1.287
4.610,1.800,1.293
4.630,1.800,1.300
4.650,1.800,1.307
4.671,1.800,1.313
4.692,1.800,1.320
4.714,1.800,1.326
4.736,1.800,1.332
4.758,1.800,1.338
4.781,1.800,1.344
4.805,1.800,1.350
4.829,1.800,1.356
4.854,1.800,1.361
4.879,1.800,1.367
4.905,1.800,1.372
4.932,1.800,1.377
4.959,1.800,1.383
4.987,1.800,1.387
5.000,1.800,1.390
5.000,1.798,1.390
5.000,1.795,1.390
5.000,1.789,1.390
5.000,1.777,1.390
5.000,1.753,1.390
5.000,1.705,1.390
5.000,1.608,1.389
5.000,1.438,1.389
5.000,1.231,1.388
5.000,1.179,1.388
5.000,1.127,1.388
5.000,1.100,1.388
5.000,1.059,1.387
5.000,1.029,1.386
5.000,1.007,1.385
5.000,988.4E-3,1.384
5.000,971.1E-3,1.382
5.000,953.6E-3,1.380
5.000,933.8E-3,1.377
5.000,916.9E-3,1.373
5.000,908.4E-3,1.371
5.000,900.0E-3,1.368
5.000,900.0E-3,1.368
5.000,900.0E-3,1.367
5.000,900.0E-3,1.367
5.000,900.0E-3,1.365
5.000,900.0E-3,1.363
5.000,900.0E-3,1.359
5.000,900.0E-3,1.355
5.000,900.0E-3,1.350
5.000,900.0E-3,1.345
5.000,900.0E-3,1.340
5.000,900.0E-3,1.334
5.000,900.0E-3,1.327
5.000,900.0E-3,1.319
5.000,900.0E-3,1.312
5.000,900.0E-3,1.303
5.000,900.0E-3,1.295
5.000,900.0E-3,1.286
5.000,900.0E-3,1.277
5.000,900.0E-3,1.269
5.000,900.0E-3,1.260
5.000,900.0E-3,1.253
5.000,900.0E-3,1.247
5.000,900.0E-3,1.241
5.000,900.0E-3,1.236
5.000,900.0E-3,1.231
5.000,900.0E-3,1.226
5.000,900.0E-3,1.222
5.000,900.0E-3,1.217
5.000,900.0E-3,1.213
5.000,900.0E-3,1.209
5.000,900.0E-3,1.205
5.000,900.0E-3,1.201
5.000,900.0E-3,1.197
5.000,900.0E-3,1.193
5.000,900.0E-3,1.188
5.000,900.0E-3,1.184
5.000,900.0E-3,1.180
5.000,900.0E-3,1.176
5.000,900.0E-3,1.172
5.000,900.0E-3,1.168
5.000,900.0E-3,1.163
5.000,900.0E-3,1.159
5.000,900.0E-3,1.155
5.000,900.0E-3,1.151
5.000,900.0E-3,1.147
5.000,900.0E-3,1.143
5.000,900.0E-3,1.139
5.000,900.0E-3,1.135
5.000,900.0E-3,1.131
5.000,900.0E-3,1.127
5.000,900.0E-3,1.123
5.000,900.0E-3,1.119
5.000,900.0E-3,1.115
5.000,900.0E-3,1.111
5.000,900.0E-3,1.107
5.000,900.0E-3,1.103
5.000,900.0E-3,1.099
5.000,900.0E-3,1.095
5.000,900.0E-3,1.091
5.000,900.0E-3,1.087
5.000,900.0E-3,1.083
5.000,900.0E-3,1.079
5.000,900.0E-3,1.076
5.000,900.0E-3,1.072
5.000,900.0E-3,1.068
5.000,900.0E-3,1.064
5.000,900.0E-3,1.060
5.000,900.0E-3,1.056
5.000,900.0E-3,1.053
5.000,900.0E-3,1.049
5.000,900.0E-3,1.045
5.000,900.0E-3,1.041
5.000,900.0E-3,1.037
5.000,900.0E-3,1.034
5.000,900.0E-3,1.030
5.000,900.0E-3,1.026
5.001,900.0E-3,1.022
5.001,900.0E-3,1.018
5.001,900.0E-3,1.015
5.001,900.0E-3,1.011
5.001,900.0E-3,1.007
5.001,900.0E-3,1.004
5.001,900.0E-3,999.9E-3
5.001,900.0E-3,996.2E-3
5.002,900.0E-3,992.5E-3
5.002,900.0E-3,988.8E-3
5.002,900.0E-3,985.2E-3
5.002,900.0E-3,981.5E-3
5.003,900.0E-3,977.9E-3
5.003,900.0E-3,974.3E-3
5.004,900.0E-3,970.6E-3
5.004,900.0E-3,967.0E-3
5.005,900.0E-3,963.4E-3
5.006,900.0E-3,959.9E-3
5.007,900.0E-3,956.3E-3
5.007,900.0E-3,952.8E-3
5.009,900.0E-3,949.3E-3
5.010,900.0E-3,945.8E-3
5.011,900.0E-3,942.4E-3
5.013,900.0E-3,939.1E-3
5.015,900.0E-3,935.7E-3
5.017,900.0E-3,932.5E-3
5.020,900.0E-3,929.3E-3
5.023,900.0E-3,926.3E-3
5.026,900.0E-3,923.3E-3
5.030,900.0E-3,920.5E-3
5.034,900.0E-3,917.8E-3
5.039,900.0E-3,915.3E-3
5.045,900.0E-3,913.0E-3
5.052,900.0E-3,910.8E-3
5.059,900.0E-3,908.9E-3
5.065,900.0E-3,907.6E-3
5.075,900.0E-3,906.0E-3
5.083,900.0E-3,905.0E-3
5.091,900.0E-3,904.1E-3
5.100,900.0E-3,903.3E-3
5.110,900.0E-3,902.7E-3
5.122,900.0E-3,902.1E-3
5.135,900.0E-3,901.5E-3
5.150,900.0E-3,901.1E-3
5.167,900.0E-3,900.7E-3
5.188,900.0E-3,900.5E-3
5.213,900.0E-3,900.2E-3
5.243,900.0E-3,900.1E-3
5.282,900.0E-3,900.0E-3
5.334,900.0E-3,900.0E-3
5.404,900.0E-3,900.0E-3
5.474,900.0E-3,900.0E-3
5.544,900.0E-3,900.0E-3
5.614,900.0E-3,900.0E-3
5.684,900.0E-3,900.0E-3
5.754,900.0E-3,900.0E-3
5.824,900.0E-3,900.0E-3
5.894,900.0E-3,900.0E-3
5.964,900.0E-3,900.0E-3
6.000,900.0E-3,900.0E-3
6.000,898.5E-3,900.0E-3
6.000,895.5E-3,900.0E-3
6.000,889.4E-3,900.0E-3
6.000,877.4E-3,900.0E-3
6.000,853.2E-3,900.0E-3
6.000,805.0E-3,899.9E-3
6.000,708.4E-3,899.7E-3
6.000,680.8E-3,899.6E-3
6.000,625.5E-3,899.3E-3
6.000,598.4E-3,899.1E-3
6.000,564.5E-3,898.6E-3
6.000,536.7E-3,897.8E-3
6.000,515.9E-3,896.9E-3
6.000,497.5E-3,895.6E-3
6.000,480.2E-3,893.9E-3
6.000,462.5E-3,891.6E-3
6.000,441.8E-3,887.8E-3
6.000,418.5E-3,882.0E-3
6.000,395.6E-3,874.7E-3
6.000,376.7E-3,867.3E-3
6.000,358.7E-3,859.2E-3
6.000,340.4E-3,849.9E-3
6.000,320.7E-3,838.9E-3
6.000,298.8E-3,825.4E-3
6.000,273.6E-3,808.4E-3
6.000,244.7E-3,787.5E-3
6.000,215.3E-3,764.7E-3
6.000,185.1E-3,739.9E-3
6.000,153.5E-3,713.0E-3
6.000,120.3E-3,683.7E-3
6.000,84.92E-3,651.6E-3
6.000,46.84E-3,616.2E-3
6.000,23.42E-3,594.1E-3
6.000,11.71E-3,583.0E-3
6.000,799.4E-12,571.8E-3
6.000,0.000,570.4E-3
6.000,0.000,568.7E-3
6.000,0.000,566.5E-3
6.000,0.000,561.9E-3
6.000,0.000,552.9E-3
6.000,0.000,544.6E-3
6.000,0.000,536.0E-3
6.000,0.000,526.8E-3
6.000,0.000,516.9E-3
6.000,0.000,506.2E-3
6.000,0.000,494.8E-3
6.000,0.000,482.6E-3
6.000,0.000,469.9E-3
6.000,0.000,456.7E-3
6.000,0.000,443.2E-3
6.000,0.000,429.7E-3
6.000,0.000,416.2E-3
6.000,0.000,404.1E-3
6.000,0.000,393.4E-3
6.000,0.000,383.9E-3
6.000,0.000,375.4E-3
6.000,0.000,367.7E-3
6.000,0.000,360.7E-3
6.000,0.000,354.3E-3
6.000,0.000,348.4E-3
6.000,0.000,343.0E-3
6.000,0.000,337.9E-3
6.000,0.000,333.2E-3
6.000,0.000,328.8E-3
6.000,0.000,324.6E-3
6.000,0.000,320.5E-3
6.000,0.000,316.5E-3
6.000,0.000,312.6E-3
6.000,0.000,308.7E-3
6.000,0.000,304.8E-3
6.000,0.000,300.8E-3
6.000,0.000,296.7E-3
6.000,0.000,292.6E-3
6.000,0.000,288.4E-3
6.000,0.000,284.2E-3
6.000,0.000,280.0E-3
6.000,0.000,275.8E-3
6.000,0.000,271.6E-3
6.000,0.000,267.5E-3
6.000,0.000,263.3E-3
6.000,0.000,259.2E-3
6.000,0.000,255.1E-3
6.000,0.000,251.0E-3
6.000,0.000,246.9E-3
6.000,0.000,242.8E-3
6.000,0.000,238.8E-3
6.000,0.000,234.7E-3
6.000,0.000,230.7E-3
6.000,0.000,226.7E-3
6.000,0.000,222.7E-3
6.000,0.000,218.7E-3
6.000,0.000,214.7E-3
6.000,0.000,210.8E-3
6.000,0.000,206.8E-3
6.000,0.000,202.9E-3
6.000,0.000,198.9E-3
6.000,0.000,195.0E-3
6.000,0.000,191.1E-3
6.000,0.000,187.2E-3
6.000,0.000,183.3E-3
6.000,0.000,179.4E-3
6.000,0.000,175.6E-3
6.000,0.000,171.7E-3
6.000,0.000,167.8E-3
6.000,0.000,164.0E-3
6.000,0.000,160.2E-3
6.000,0.000,156.4E-3
6.000,0.000,152.6E-3
6.000,0.000,148.8E-3
6.000,0.000,145.0E-3
6.000,0.000,141.2E-3
6.000,0.000,137.4E-3
6.000,0.000,133.7E-3
6.000,0.000,129.9E-3
6.000,0.000,126.2E-3
6.001,0.000,122.5E-3
6.001,0.000,118.8E-3
6.001,0.000,115.1E-3
6.001,0.000,111.4E-3
6.001,0.000,107.8E-3
6.001,0.000,104.1E-3
6.001,0.000,100.5E-3
6.001,0.000,96.91E-3
6.002,0.000,93.33E-3
6.002,0.000,89.78E-3
6.002,0.000,86.26E-3
6.003,0.000,82.77E-3
6.003,0.000,79.31E-3
6.003,0.000,75.90E-3
6.004,0.000,72.53E-3
6.004,0.000,69.20E-3
6.005,0.000,65.94E-3
6.006,0.000,62.73E-3
6.007,0.000,59.60E-3
6.008,0.000,56.54E-3
6.009,0.000,53.58E-3
6.010,0.000,50.72E-3
6.011,0.000,47.98E-3
6.013,0.000,45.37E-3
6.015,0.000,42.90E-3
6.017,0.000,40.59E-3
6.020,0.000,38.47E-3
6.023,0.000,36.53E-3
6.026,0.000,34.80E-3
6.030,0.000,33.28E-3
6.035,0.000,31.98E-3
6.040,0.000,30.90E-3
6.046,0.000,30.03E-3
6.053,0.000,29.37E-3
6.061,0.000,28.88E-3
6.068,0.000,28.60E-3
6.077,0.000,28.41E-3
6.088,0.000,28.28E-3
6.102,0.000,28.21E-3
6.122,0.000,28.17E-3
6.148,0.000,28.17E-3
6.185,0.000,28.17E-3
6.241,0.000,28.18E-3
6.311,0.000,28.18E-3
6.381,0.000,28.18E-3
6.451,0.000,28.18E-3
6.521,0.000,28.18E-3
6.591,0.000,28.18E-3
6.661,0.000,28.18E-3
6.731,0.000,28.18E-3
6.801,0.000,28.18E-3
6.871,0.000,28.18E-3
6.941,0.000,28.18E-3
7.000,0.000,28.18E-3
