time,v_out,v_in
0.000,1.736,0.000
7.000E-3,1.736,0.000
21.00E-3,1.736,0.000
49.00E-3,1.736,0.000
105.0E-3,1.736,0.000
175.0E-3,1.736,0.000
245.0E-3,1.736,0.000
315.0E-3,1.736,0.000
385.0E-3,1.736,0.000
455.0E-3,1.736,0.000
525.0E-3,1.736,0.000
595.0E-3,1.736,0.000
665.0E-3,1.736,0.000
735.0E-3,1.736,0.000
805.0E-3,1.736,0.000
875.0E-3,1.736,0.000
945.0E-3,1.736,0.000
1.000,1.736,0.000
1.000,1.736,1.508E-3
1.000,1.736,4.525E-3
1.000,1.736,10.56E-3
1.000,1.736,22.63E-3
1.000,1.736,46.76E-3
1.000,1.736,95.03E-3
1.000,1.736,191.6E-3
1.000,1.736,384.6E-3
1.000,1.736,770.8E-3
1.000,1.736,1.285
1.000,1.736,1.800
1.000,1.736,1.800
1.000,1.736,1.800
1.000,1.736,1.800
1.000,1.736,1.800
1.000,1.736,1.800
1.000,1.736,1.800
1.000,1.736,1.800
1.000,1.736,1.800
1.000,1.736,1.800
1.000,1.736,1.800
1.000,1.736,1.800
1.000,1.735,1.800
1.000,1.735,1.800
1.000,1.735,1.800
1.000,1.734,1.800
1.000,1.733,1.800
1.000,1.730,1.800
1.000,1.724,1.800
1.000,1.713,1.800
1.001,1.692,1.800
1.002,1.649,1.800
1.004,1.566,1.800
1.006,1.471,1.800
1.008,1.382,1.800
1.010,1.298,1.800
1.012,1.219,1.800
1.014,1.144,1.800
1.017,1.072,1.800
1.019,1.004,1.800
1.021,939.7E-3,1.800
1.024,878.0E-3,1.800
1.026,819.3E-3,1.800
1.029,763.6E-3,1.800
1.031,710.7E-3,1.800
1.034,660.7E-3,1.800
1.037,613.4E-3,1.800
1.039,568.7E-3,1.800
1.042,526.6E-3,1.800
1.045,486.9E-3,1.800
1.048,449.7E-3,1.800
1.051,414.8E-3,1.800
1.055,382.1E-3,1.800
1.058,351.6E-3,1.800
1.061,323.2E-3,1.800
1.065,296.8E-3,1.800
1.069,272.3E-3,1.800
1.072,249.7E-3,1.800
1.076,228.8E-3,1.800
1.081,209.7E-3,1.800
1.085,192.1E-3,1.800
1.089,176.1E-3,1.800
1.094,161.6E-3,1.800
1.099,148.5E-3,1.800
1.104,136.7E-3,1.800
1.109,126.1E-3,1.800
1.115,116.7E-3,1.800
1.121,108.4E-3,1.800
1.127,101.2E-3,1.800
1.134,94.81E-3,1.800
1.141,89.35E-3,1.800
1.149,84.69E-3,1.800
1.157,80.76E-3,1.800
1.165,77.50E-3,1.800
1.175,74.83E-3,1.800
1.185,72.69E-3,1.800
1.197,71.01E-3,1.800
1.210,69.73E-3,1.800
1.224,68.79E-3,1.800
1.240,68.12E-3,1.800
1.258,67.68E-3,1.800
1.280,67.41E-3,1.800
1.306,67.27E-3,1.800
1.338,67.21E-3,1.800
1.378,67.19E-3,1.800
1.434,67.20E-3,1.800
1.504,67.20E-3,1.800
1.574,67.21E-3,1.800
1.644,67.21E-3,1.800
1.714,67.21E-3,1.800
1.784,67.21E-3,1.800
1.854,67.21E-3,1.800
1.924,67.21E-3,1.800
1.994,67.21E-3,1.800
2.000,67.21E-3,1.800
2.000,67.21E-3,1.798
2.000,67.21E-3,1.795
2.000,67.21E-3,1.787
2.000,67.21E-3,1.773
2.000,67.21E-3,1.744
2.000,67.21E-3,1.687
2.000,67.21E-3,1.571
2.000,67.21E-3,1.341
2.000,67.21E-3,880.2E-3
2.000,67.22E-3,419.4E-3
2.000,67.22E-3,189.0E-3
2.000,67.22E-3,94.50E-3
2.000,67.23E-3,0.000
2.000,67.23E-3,0.000
2.000,67.23E-3,0.000
2.000,67.23E-3,0.000
2.000,67.23E-3,0.000
2.000,67.23E-3,0.000
2.000,67.23E-3,0.000
2.000,67.23E-3,0.000
2.000,67.24E-3,0.000
2.000,67.25E-3,0.000
2.000,67.28E-3,0.000
2.000,67.33E-3,0.000
2.000,67.43E-3,0.000
2.000,67.64E-3,0.000
2.000,68.06E-3,0.000
2.000,68.89E-3,0.000
2.000,70.56E-3,0.000
2.000,73.89E-3,0.000
2.000,80.52E-3,0.000
2.001,93.72E-3,0.000
2.001,119.8E-3,0.000
2.002,170.7E-3,0.000
2.004,267.8E-3,0.000
2.006,361.3E-3,0.000
2.008,447.9E-3,0.000
2.011,530.4E-3,0.000
2.013,607.9E-3,0.000
2.015,681.4E-3,0.000
2.017,751.5E-3,0.000
2.020,818.3E-3,0.000
2.022,882.0E-3,0.000
2.024,942.7E-3,0.000
2.027,1.000,0.000
2.029,1.055,0.000
2.032,1.107,0.000
2.035,1.156,0.000
2.037,1.203,0.000
2.040,1.247,0.000
2.043,1.288,0.000
2.046,1.327,0.000
2.049,1.363,0.000
2.052,1.398,0.000
2.055,1.430,0.000
2.059,1.460,0.000
2.062,1.487,0.000
2.066,1.513,0.000
2.070,1.537,0.000
2.073,1.559,0.000
2.077,1.580,0.000
2.082,1.598,0.000
2.086,1.615,0.000
2.090,1.631,0.000
2.095,1.645,0.000
2.100,1.658,0.000
2.105,1.669,0.000
2.111,1.679,0.000
2.116,1.689,0.000
2.122,1.697,0.000
2.129,1.704,0.000
2.136,1.710,0.000
2.143,1.715,0.000
2.151,1.719,0.000
2.159,1.723,0.000
2.168,1.726,0.000
2.178,1.729,0.000
2.188,1.731,0.000
2.200,1.732,0.000
2.213,1.733,0.000
2.228,1.734,0.000
2.245,1.735,0.000
2.264,1.735,0.000
2.287,1.735,0.000
2.314,1.736,0.000
2.348,1.736,0.000
2.392,1.736,0.000
2.453,1.736,0.000
2.523,1.736,0.000
2.593,1.736,0.000
2.663,1.736,0.000
2.733,1.736,0.000
2.803,1.736,0.000
2.873,1.736,0.000
2.943,1.736,0.000
3.000,1.736,0.000
3.000,1.736,1.508E-3
3.000,1.736,4.525E-3
3.000,1.736,10.56E-3
3.000,1.736,22.63E-3
3.000,1.736,46.76E-3
3.000,1.736,95.03E-3
3.000,1.736,191.6E-3
3.000,1.736,384.6E-3
3.000,1.736,642.3E-3
3.000,1.736,900.0E-3
3.000,1.736,900.0E-3
3.000,1.736,900.0E-3
3.000,1.736,900.0E-3
3.000,1.736,900.0E-3
3.000,1.736,900.0E-3
3.000,1.736,900.0E-3
3.000,1.736,900.0E-3
3.000,1.736,900.0E-3
3.000,1.736,900.0E-3
3.000,1.736,900.0E-3
3.000,1.736,900.0E-3
3.000,1.735,900.0E-3
3.000,1.735,900.0E-3
3.000,1.735,900.0E-3
3.000,1.734,900.0E-3
3.000,1.733,900.0E-3
3.000,1.730,900.0E-3
3.000,1.725,900.0E-3
3.001,1.714,900.0E-3
3.002,1.692,900.0E-3
3.004,1.651,900.0E-3
3.006,1.591,900.0E-3
3.009,1.536,900.0E-3
3.012,1.485,900.0E-3
3.015,1.437,900.0E-3
3.017,1.393,900.0E-3
3.020,1.351,900.0E-3
3.023,1.312,900.0E-3
3.026,1.276,900.0E-3
3.029,1.241,900.0E-3
3.033,1.209,900.0E-3
3.036,1.179,900.0E-3
3.039,1.151,900.0E-3
3.043,1.125,900.0E-3
3.047,1.101,900.0E-3
3.051,1.079,900.0E-3
3.055,1.059,900.0E-3
3.059,1.040,900.0E-3
3.063,1.023,900.0E-3
3.068,1.007,900.0E-3
3.072,992.8E-3,900.0E-3
3.077,979.9E-3,900.0E-3
3.082,968.4E-3,900.0E-3
3.088,958.1E-3,900.0E-3
3.093,949.0E-3,900.0E-3
3.100,940.9E-3,900.0E-3
3.106,933.9E-3,900.0E-3
3.113,927.7E-3,900.0E-3
3.120,922.4E-3,900.0E-3
3.128,918.0E-3,900.0E-3
3.136,914.2E-3,900.0E-3
3.145,911.1E-3,900.0E-3
3.155,908.5E-3,900.0E-3
3.165,906.5E-3,900.0E-3
3.177,904.9E-3,900.0E-3
3.190,903.7E-3,900.0E-3
3.204,902.8E-3,900.0E-3
3.221,902.2E-3,900.0E-3
3.240,901.8E-3,900.0E-3
3.263,901.6E-3,900.0E-3
3.290,901.5E-3,900.0E-3
3.323,901.4E-3,900.0E-3
3.366,901.4E-3,900.0E-3
3.426,901.4E-3,900.0E-3
3.496,901.4E-3,900.0E-3
3.566,901.4E-3,900.0E-3
3.636,901.4E-3,900.0E-3
3.706,901.4E-3,900.0E-3
3.776,901.4E-3,900.0E-3
3.846,901.4E-3,900.0E-3
3.916,901.4E-3,900.0E-3
3.986,901.4E-3,900.0E-3
4.000,901.4E-3,900.0E-3
4.000,901.4E-3,901.5E-3
4.000,901.4E-3,904.5E-3
4.000,901.4E-3,910.6E-3
4.000,901.4E-3,922.6E-3
4.000,901.4E-3,946.8E-3
4.000,901.4E-3,995.0E-3
4.000,901.4E-3,1.092
4.000,901.4E-3,1.285
4.000,901.4E-3,1.542
4.000,901.4E-3,1.800
4.000,901.4E-3,1.800
4.000,901.4E-3,1.800
4.000,901.4E-3,1.800
4.000,901.4E-3,1.800
4.000,901.4E-3,1.800
4.000,901.4E-3,1.800
4.000,901.4E-3,1.800
4.000,901.4E-3,1.800
4.000,901.4E-3,1.800
4.000,901.4E-3,1.800
4.000,901.3E-3,1.800
4.000,901.2E-3,1.800
4.000,901.1E-3,1.800
4.000,900.7E-3,1.800
4.000,900.0E-3,1.800
4.000,898.6E-3,1.800
4.000,895.8E-3,1.800
4.000,890.3E-3,1.800
4.001,879.4E-3,1.800
4.002,857.9E-3,1.800
4.004,816.7E-3,1.800
4.006,757.1E-3,1.800
4.009,701.8E-3,1.800
4.012,650.8E-3,1.800
4.015,603.1E-3,1.800
4.017,558.8E-3,1.800
4.020,517.3E-3,1.800
4.023,478.2E-3,1.800
4.026,441.6E-3,1.800
4.029,407.2E-3,1.800
4.033,375.0E-3,1.800
4.036,345.0E-3,1.800
4.039,317.0E-3,1.800
4.043,291.1E-3,1.800
4.047,267.0E-3,1.800
4.051,244.8E-3,1.800
4.055,224.3E-3,1.800
4.059,205.6E-3,1.800
4.063,188.4E-3,1.800
4.068,172.7E-3,1.800
4.072,158.6E-3,1.800
4.077,145.7E-3,1.800
4.082,134.2E-3,1.800
4.088,123.9E-3,1.800
4.093,114.8E-3,1.800
4.100,106.7E-3,1.800
4.106,99.64E-3,1.800
4.113,93.51E-3,1.800
4.120,88.23E-3,1.800
4.128,83.74E-3,1.800
4.136,79.97E-3,1.800
4.145,76.85E-3,1.800
4.155,74.30E-3,1.800
4.165,72.27E-3,1.800
4.177,70.69E-3,1.800
4.190,69.49E-3,1.800
4.204,68.62E-3,1.800
4.221,68.01E-3,1.800
4.240,67.61E-3,1.800
4.263,67.37E-3,1.800
4.290,67.25E-3,1.800
4.323,67.20E-3,1.800
4.367,67.19E-3,1.800
4.426,67.20E-3,1.800
4.496,67.20E-3,1.800
4.566,67.21E-3,1.800
4.636,67.21E-3,1.800
4.706,67.21E-3,1.800
4.776,67.21E-3,1.800
4.846,67.21E-3,1.800
4.916,67.21E-3,1.800
4.986,67.21E-3,1.800
5.000,67.21E-3,1.800
5.000,67.21E-3,1.798
5.000,67.21E-3,1.795
5.000,67.21E-3,1.789
5.000,67.21E-3,1.777
5.000,67.21E-3,1.753
5.000,67.21E-3,1.705
5.000,67.21E-3,1.608
5.000,67.21E-3,1.415
5.000,67.21E-3,1.158
5.000,67.22E-3,900.0E-3
5.000,67.22E-3,900.0E-3
5.000,67.22E-3,900.0E-3
5.000,67.22E-3,900.0E-3
5.000,67.22E-3,900.0E-3
5.000,67.22E-3,900.0E-3
5.000,67.22E-3,900.0E-3
5.000,67.22E-3,900.0E-3
5.000,67.23E-3,900.0E-3
5.000,67.24E-3,900.0E-3
5.000,67.26E-3,900.0E-3
5.000,67.30E-3,900.0E-3
5.000,67.39E-3,900.0E-3
5.000,67.57E-3,900.0E-3
5.000,67.91E-3,900.0E-3
5.000,68.61E-3,900.0E-3
5.000,70.01E-3,900.0E-3
5.000,72.79E-3,900.0E-3
5.000,78.32E-3,900.0E-3
5.001,89.28E-3,900.0E-3
5.002,110.8E-3,900.0E-3
5.004,152.0E-3,900.0E-3
5.006,211.5E-3,900.0E-3
5.009,266.7E-3,900.0E-3
5.012,317.7E-3,900.0E-3
5.014,365.4E-3,900.0E-3
5.017,409.6E-3,900.0E-3
5.020,451.1E-3,900.0E-3
5.023,490.1E-3,900.0E-3
5.026,526.8E-3,900.0E-3
5.029,561.1E-3,900.0E-3
5.033,593.3E-3,900.0E-3
5.036,623.3E-3,900.0E-3
5.039,651.3E-3,900.0E-3
5.043,677.3E-3,900.0E-3
5.047,701.3E-3,900.0E-3
5.051,723.6E-3,900.0E-3
5.055,744.0E-3,900.0E-3
5.059,762.8E-3,900.0E-3
5.063,780.0E-3,900.0E-3
5.067,795.7E-3,900.0E-3
5.072,809.9E-3,900.0E-3
5.077,822.7E-3,900.0E-3
5.082,834.3E-3,900.0E-3
5.088,844.6E-3,900.0E-3
5.093,853.7E-3,900.0E-3
5.099,861.8E-3,900.0E-3
5.106,868.9E-3,900.0E-3
5.113,875.0E-3,900.0E-3
5.120,880.3E-3,900.0E-3
5.127,884.8E-3,900.0E-3
5.136,888.6E-3,900.0E-3
5.145,891.7E-3,900.0E-3
5.154,894.3E-3,900.0E-3
5.165,896.3E-3,900.0E-3
5.177,897.9E-3,900.0E-3
5.190,899.1E-3,900.0E-3
5.204,900.0E-3,900.0E-3
5.221,900.6E-3,900.0E-3
5.240,901.0E-3,900.0E-3
5.262,901.3E-3,900.0E-3
5.289,901.4E-3,900.0E-3
5.322,901.4E-3,900.0E-3
5.366,901.4E-3,900.0E-3
5.425,901.4E-3,900.0E-3
5.495,901.4E-3,900.0E-3
5.565,901.4E-3,900.0E-3
5.635,901.4E-3,900.0E-3
5.705,901.4E-3,900.0E-3
5.775,901.4E-3,900.0E-3
5.845,901.4E-3,900.0E-3
5.915,901.4E-3,900.0E-3
5.985,901.4E-3,900.0E-3
6.000,901.4E-3,900.0E-3
6.000,901.4E-3,898.5E-3
6.000,901.4E-3,895.5E-3
6.000,901.4E-3,889.4E-3
6.000,901.4E-3,877.4E-3
6.000,901.4E-3,853.2E-3
6.000,901.4E-3,805.0E-3
6.000,901.4E-3,708.4E-3
6.000,901.4E-3,515.4E-3
6.000,901.4E-3,257.7E-3
6.000,901.4E-3,0.000
6.000,901.4E-3,0.000
6.000,901.4E-3,0.000
6.000,901.4E-3,0.000
6.000,901.4E-3,0.000
6.000,901.4E-3,0.000
6.000,901.4E-3,0.000
6.000,901.4E-3,0.000
6.000,901.4E-3,0.000
6.000,901.4E-3,0.000
6.000,901.5E-3,0.000
6.000,901.5E-3,0.000
6.000,901.6E-3,0.000
6.000,901.8E-3,0.000
6.000,902.1E-3,0.000
6.000,902.8E-3,0.000
6.000,904.2E-3,0.000
6.000,907.0E-3,0.000
6.000,912.5E-3,0.000
6.001,923.5E-3,0.000
6.002,945.0E-3,0.000
6.004,986.3E-3,0.000
6.006,1.046,0.000
6.009,1.101,0.000
6.012,1.152,0.000
6.014,1.200,0.000
6.017,1.244,0.000
6.020,1.285,0.000
6.023,1.324,0.000
6.026,1.361,0.000
6.029,1.395,0.000
6.033,1.428,0.000
6.036,1.458,0.000
6.039,1.486,0.000
6.043,1.511,0.000
6.047,1.536,0.000
6.051,1.558,0.000
6.055,1.578,0.000
6.059,1.597,0.000
6.063,1.614,0.000
6.067,1.630,0.000
6.072,1.644,0.000
6.077,1.657,0.000
6.082,1.668,0.000
6.088,1.679,0.000
6.093,1.688,0.000
6.099,1.696,0.000
6.106,1.703,0.000
6.113,1.709,0.000
6.120,1.715,0.000
6.127,1.719,0.000
6.136,1.723,0.000
6.145,1.726,0.000
6.154,1.729,0.000
6.165,1.731,0.000
6.177,1.732,0.000
6.190,1.733,0.000
6.204,1.734,0.000
6.221,1.735,0.000
6.240,1.735,0.000
6.262,1.735,0.000
6.289,1.736,0.000
6.322,1.736,0.000
6.366,1.736,0.000
6.425,1.736,0.000
6.495,1.736,0.000
6.565,1.736,0.000
6.635,1.736,0.000
6.705,1.736,0.000
6.775,1.736,0.000
6.845,1.736,0.000
6.915,1.736,0.000
6.958,1.736,0.000
7.000,1.736,0.000
