time,v_out,v_in
0.000,1.774,0.000
7.000E-3,1.774,0.000
21.00E-3,1.774,0.000
49.00E-3,1.774,0.000
105.0E-3,1.774,0.000
175.0E-3,1.774,0.000
245.0E-3,1.774,0.000
315.0E-3,1.774,0.000
385.0E-3,1.774,0.000
455.0E-3,1.774,0.000
525.0E-3,1.774,0.000
595.0E-3,1.774,0.000
665.0E-3,1.774,0.000
735.0E-3,1.774,0.000
805.0E-3,1.774,0.000
875.0E-3,1.774,0.000
945.0E-3,1.774,0.000
1.000,1.774,0.000
1.000,1.774,1.508E-3
1.000,1.774,4.525E-3
1.000,1.774,10.56E-3
1.000,1.774,22.63E-3
1.000,1.774,46.76E-3
1.000,1.774,95.03E-3
1.000,1.774,191.6E-3
1.000,1.774,384.6E-3
1.000,1.774,770.8E-3
1.000,1.774,1.285
1.000,1.774,1.800
1.000,1.774,1.800
1.000,1.774,1.800
1.000,1.774,1.800
1.000,1.774,1.800
1.000,1.774,1.800
1.000,1.774,1.800
1.000,1.774,1.800
1.000,1.774,1.800
1.000,1.774,1.800
1.000,1.774,1.800
1.000,1.774,1.800
1.000,1.774,1.800
1.000,1.773,1.800
1.000,1.773,1.800
1.000,1.772,1.800
1.000,1.770,1.800
1.000,1.767,1.800
1.000,1.760,1.800
1.000,1.747,1.800
1.001,1.721,1.800
1.002,1.670,1.800
1.004,1.572,1.800
1.005,1.475,1.800
1.007,1.385,1.800
1.009,1.299,1.800
1.011,1.218,1.800
1.013,1.142,1.800
1.015,1.069,1.800
1.017,999.0E-3,1.800
1.019,932.4E-3,1.800
1.021,869.0E-3,1.800
1.023,808.6E-3,1.800
1.025,751.2E-3,1.800
1.027,696.7E-3,1.800
1.030,645.1E-3,1.800
1.032,596.2E-3,1.800
1.035,550.0E-3,1.800
1.037,506.4E-3,1.800
1.040,465.4E-3,1.800
1.042,426.8E-3,1.800
1.045,390.6E-3,1.800
1.048,356.7E-3,1.800
1.051,325.0E-3,1.800
1.054,295.5E-3,1.800
1.057,268.0E-3,1.800
1.060,242.5E-3,1.800
1.063,218.9E-3,1.800
1.067,197.1E-3,1.800
1.070,177.1E-3,1.800
1.074,158.7E-3,1.800
1.078,142.0E-3,1.800
1.082,126.7E-3,1.800
1.086,112.9E-3,1.800
1.090,100.5E-3,1.800
1.095,89.37E-3,1.800
1.100,79.44E-3,1.800
1.105,70.64E-3,1.800
1.111,62.91E-3,1.800
1.116,56.17E-3,1.800
1.122,50.34E-3,1.800
1.129,45.35E-3,1.800
1.136,41.13E-3,1.800
1.144,37.60E-3,1.800
1.152,34.71E-3,1.800
1.161,32.37E-3,1.800
1.170,30.52E-3,1.800
1.181,29.10E-3,1.800
1.193,28.05E-3,1.800
1.207,27.29E-3,1.800
1.222,26.78E-3,1.800
1.240,26.46E-3,1.800
1.262,26.28E-3,1.800
1.288,26.19E-3,1.800
1.321,26.17E-3,1.800
1.365,26.17E-3,1.800
1.428,26.18E-3,1.800
1.498,26.18E-3,1.800
1.568,26.18E-3,1.800
1.638,26.18E-3,1.800
1.708,26.18E-3,1.800
1.778,26.18E-3,1.800
1.848,26.18E-3,1.800
1.918,26.18E-3,1.800
1.988,26.18E-3,1.800
2.000,26.18E-3,1.800
2.000,26.18E-3,1.798
2.000,26.18E-3,1.795
2.000,26.18E-3,1.787
2.000,26.18E-3,1.773
2.000,26.18E-3,1.744
2.000,26.18E-3,1.687
2.000,26.18E-3,1.571
2.000,26.18E-3,1.341
2.000,26.19E-3,880.2E-3
2.000,26.19E-3,419.4E-3
2.000,26.20E-3,189.0E-3
2.000,26.20E-3,94.50E-3
2.000,26.20E-3,0.000
2.000,26.20E-3,0.000
2.000,26.20E-3,0.000
2.000,26.20E-3,0.000
2.000,26.20E-3,0.000
2.000,26.20E-3,0.000
2.000,26.21E-3,0.000
2.000,26.21E-3,0.000
2.000,26.22E-3,0.000
2.000,26.23E-3,0.000
2.000,26.26E-3,0.000
2.000,26.33E-3,0.000
2.000,26.45E-3,0.000
2.000,26.70E-3,0.000
2.000,27.19E-3,0.000
2.000,28.18E-3,0.000
2.000,30.16E-3,0.000
2.000,34.11E-3,0.000
2.000,41.99E-3,0.000
2.001,57.63E-3,0.000
2.001,88.50E-3,0.000
2.002,148.6E-3,0.000
2.004,250.6E-3,0.000
2.006,347.2E-3,0.000
2.008,437.0E-3,0.000
2.010,522.4E-3,0.000
2.012,602.7E-3,0.000
2.013,678.9E-3,0.000
2.015,751.5E-3,0.000
2.017,820.8E-3,0.000
2.020,886.9E-3,0.000
2.022,949.8E-3,0.000
2.024,1.010,0.000
2.026,1.066,0.000
2.028,1.120,0.000
2.031,1.171,0.000
2.033,1.219,0.000
2.036,1.265,0.000
2.038,1.308,0.000
2.041,1.348,0.000
2.043,1.386,0.000
2.046,1.421,0.000
2.049,1.455,0.000
2.052,1.486,0.000
2.055,1.515,0.000
2.058,1.541,0.000
2.061,1.566,0.000
2.065,1.589,0.000
2.068,1.610,0.000
2.072,1.630,0.000
2.076,1.648,0.000
2.079,1.664,0.000
2.084,1.678,0.000
2.088,1.692,0.000
2.092,1.704,0.000
2.097,1.714,0.000
2.102,1.724,0.000
2.107,1.732,0.000
2.113,1.740,0.000
2.119,1.746,0.000
2.125,1.752,0.000
2.132,1.756,0.000
2.139,1.760,0.000
2.147,1.764,0.000
2.155,1.766,0.000
2.164,1.768,0.000
2.174,1.770,0.000
2.186,1.771,0.000
2.198,1.772,0.000
2.213,1.773,0.000
2.229,1.773,0.000
2.248,1.774,0.000
2.271,1.774,0.000
2.300,1.774,0.000
2.336,1.774,0.000
2.386,1.774,0.000
2.456,1.774,0.000
2.526,1.774,0.000
2.596,1.774,0.000
2.666,1.774,0.000
2.736,1.774,0.000
2.806,1.774,0.000
2.876,1.774,0.000
2.946,1.774,0.000
3.000,1.774,0.000
3.000,1.774,1.508E-3
3.000,1.774,4.525E-3
3.000,1.774,10.56E-3
3.000,1.774,22.63E-3
3.000,1.774,46.76E-3
3.000,1.774,95.03E-3
3.000,1.774,191.6E-3
3.000,1.774,384.6E-3
3.000,1.774,642.3E-3
3.000,1.774,900.0E-3
3.000,1.774,900.0E-3
3.000,1.774,900.0E-3
3.000,1.774,900.0E-3
3.000,1.774,900.0E-3
3.000,1.774,900.0E-3
3.000,1.774,900.0E-3
3.000,1.774,900.0E-3
3.000,1.774,900.0E-3
3.000,1.774,900.0E-3
3.000,1.774,900.0E-3
3.000,1.774,900.0E-3
3.000,1.774,900.0E-3
3.000,1.773,900.0E-3
3.000,1.773,900.0E-3
3.000,1.772,900.0E-3
3.000,1.770,900.0E-3
3.000,1.767,900.0E-3
3.000,1.761,900.0E-3
3.001,1.747,900.0E-3
3.002,1.722,900.0E-3
3.004,1.673,900.0E-3
3.006,1.612,900.0E-3
3.008,1.556,900.0E-3
3.011,1.504,900.0E-3
3.013,1.455,900.0E-3
3.015,1.409,900.0E-3
3.018,1.367,900.0E-3
3.021,1.327,900.0E-3
3.023,1.289,900.0E-3
3.026,1.253,900.0E-3
3.029,1.220,900.0E-3
3.032,1.189,900.0E-3
3.035,1.160,900.0E-3
3.038,1.133,900.0E-3
3.041,1.109,900.0E-3
3.044,1.085,900.0E-3
3.048,1.064,900.0E-3
3.052,1.045,900.0E-3
3.055,1.027,900.0E-3
3.059,1.011,900.0E-3
3.063,996.0E-3,900.0E-3
3.068,982.6E-3,900.0E-3
3.072,970.6E-3,900.0E-3
3.077,959.9E-3,900.0E-3
3.082,950.3E-3,900.0E-3
3.087,941.9E-3,900.0E-3
3.093,934.5E-3,900.0E-3
3.098,928.0E-3,900.0E-3
3.105,922.5E-3,900.0E-3
3.111,917.7E-3,900.0E-3
3.119,913.7E-3,900.0E-3
3.126,910.4E-3,900.0E-3
3.135,907.7E-3,900.0E-3
3.144,905.5E-3,900.0E-3
3.154,903.8E-3,900.0E-3
3.165,902.5E-3,900.0E-3
3.178,901.6E-3,900.0E-3
3.192,900.9E-3,900.0E-3
3.208,900.5E-3,900.0E-3
3.227,900.2E-3,900.0E-3
3.250,900.1E-3,900.0E-3
3.278,900.0E-3,900.0E-3
3.314,900.0E-3,900.0E-3
3.363,900.0E-3,900.0E-3
3.433,900.0E-3,900.0E-3
3.503,900.0E-3,900.0E-3
3.573,900.0E-3,900.0E-3
3.643,900.0E-3,900.0E-3
3.713,900.0E-3,900.0E-3
3.783,900.0E-3,900.0E-3
3.853,900.0E-3,900.0E-3
3.923,900.0E-3,900.0E-3
3.993,900.0E-3,900.0E-3
4.000,900.0E-3,900.0E-3
4.000,900.0E-3,901.5E-3
4.000,900.0E-3,904.5E-3
4.000,900.0E-3,910.6E-3
4.000,900.0E-3,922.6E-3
4.000,900.0E-3,946.8E-3
4.000,900.0E-3,995.0E-3
4.000,900.0E-3,1.092
4.000,900.0E-3,1.285
4.000,900.0E-3,1.542
4.000,900.0E-3,1.800
4.000,900.0E-3,1.800
4.000,900.0E-3,1.800
4.000,900.0E-3,1.800
4.000,900.0E-3,1.800
4.000,900.0E-3,1.800
4.000,900.0E-3,1.800
4.000,900.0E-3,1.800
4.000,900.0E-3,1.800
4.000,900.0E-3,1.800
4.000,899.9E-3,1.800
4.000,899.9E-3,1.800
4.000,899.8E-3,1.800
4.000,899.6E-3,1.800
4.000,899.2E-3,1.800
4.000,898.3E-3,1.800
4.000,896.7E-3,1.800
4.000,893.3E-3,1.800
4.000,886.7E-3,1.800
4.001,873.7E-3,1.800
4.002,848.1E-3,1.800
4.004,799.3E-3,1.800
4.006,738.5E-3,1.800
4.008,682.2E-3,1.800
4.011,629.9E-3,1.800
4.013,581.0E-3,1.800
4.015,535.6E-3,1.800
4.018,492.9E-3,1.800
4.021,452.7E-3,1.800
4.023,414.9E-3,1.800
4.026,379.5E-3,1.800
4.029,346.3E-3,1.800
4.032,315.3E-3,1.800
4.035,286.4E-3,1.800
4.038,259.6E-3,1.800
4.041,234.7E-3,1.800
4.044,211.7E-3,1.800
4.048,190.5E-3,1.800
4.052,171.0E-3,1.800
4.055,153.2E-3,1.800
4.059,136.9E-3,1.800
4.063,122.1E-3,1.800
4.068,108.8E-3,1.800
4.072,96.79E-3,1.800
4.077,86.05E-3,1.800
4.082,76.49E-3,1.800
4.087,68.05E-3,1.800
4.092,60.64E-3,1.800
4.098,54.20E-3,1.800
4.105,48.65E-3,1.800
4.111,43.91E-3,1.800
4.118,39.92E-3,1.800
4.126,36.61E-3,1.800
4.135,33.90E-3,1.800
4.144,31.72E-3,1.800
4.154,30.02E-3,1.800
4.165,28.73E-3,1.800
4.178,27.77E-3,1.800
4.192,27.10E-3,1.800
4.208,26.66E-3,1.800
4.227,26.39E-3,1.800
4.250,26.24E-3,1.800
4.278,26.18E-3,1.800
4.314,26.16E-3,1.800
4.363,26.17E-3,1.800
4.433,26.18E-3,1.800
4.503,26.18E-3,1.800
4.573,26.18E-3,1.800
4.643,26.18E-3,1.800
4.713,26.18E-3,1.800
4.783,26.18E-3,1.800
4.853,26.18E-3,1.800
4.923,26.18E-3,1.800
4.993,26.18E-3,1.800
5.000,26.18E-3,1.800
5.000,26.18E-3,1.798
5.000,26.18E-3,1.795
5.000,26.18E-3,1.789
5.000,26.18E-3,1.777
5.000,26.18E-3,1.753
5.000,26.18E-3,1.705
5.000,26.18E-3,1.608
5.000,26.18E-3,1.415
5.000,26.19E-3,1.158
5.000,26.19E-3,900.0E-3
5.000,26.19E-3,900.0E-3
5.000,26.19E-3,900.0E-3
5.000,26.19E-3,900.0E-3
5.000,26.19E-3,900.0E-3
5.000,26.19E-3,900.0E-3
5.000,26.20E-3,900.0E-3
5.000,26.20E-3,900.0E-3
5.000,26.20E-3,900.0E-3
5.000,26.22E-3,900.0E-3
5.000,26.24E-3,900.0E-3
5.000,26.30E-3,900.0E-3
5.000,26.40E-3,900.0E-3
5.000,26.61E-3,900.0E-3
5.000,27.02E-3,900.0E-3
5.000,27.85E-3,900.0E-3
5.000,29.51E-3,900.0E-3
5.000,32.82E-3,900.0E-3
5.000,39.40E-3,900.0E-3
5.001,52.41E-3,900.0E-3
5.002,77.84E-3,900.0E-3
5.004,126.5E-3,900.0E-3
5.006,187.7E-3,900.0E-3
5.008,244.2E-3,900.0E-3
5.011,296.8E-3,900.0E-3
5.013,345.8E-3,900.0E-3
5.016,391.4E-3,900.0E-3
5.018,434.2E-3,900.0E-3
5.021,474.5E-3,900.0E-3
5.023,512.3E-3,900.0E-3
5.026,547.8E-3,900.0E-3
5.029,581.0E-3,900.0E-3
5.032,612.0E-3,900.0E-3
5.035,640.8E-3,900.0E-3
5.038,667.7E-3,900.0E-3
5.041,692.5E-3,900.0E-3
5.045,715.5E-3,900.0E-3
5.048,736.6E-3,900.0E-3
5.052,756.0E-3,900.0E-3
5.056,773.8E-3,900.0E-3
5.060,790.0E-3,900.0E-3
5.064,804.7E-3,900.0E-3
5.068,818.0E-3,900.0E-3
5.072,830.0E-3,900.0E-3
5.077,840.7E-3,900.0E-3
5.082,850.2E-3,900.0E-3
5.087,858.5E-3,900.0E-3
5.093,865.9E-3,900.0E-3
5.099,872.3E-3,900.0E-3
5.105,877.8E-3,900.0E-3
5.112,882.5E-3,900.0E-3
5.119,886.5E-3,900.0E-3
5.127,889.7E-3,900.0E-3
5.135,892.4E-3,900.0E-3
5.144,894.6E-3,900.0E-3
5.155,896.2E-3,900.0E-3
5.166,897.5E-3,900.0E-3
5.178,898.5E-3,900.0E-3
5.193,899.1E-3,900.0E-3
5.209,899.5E-3,900.0E-3
5.228,899.8E-3,900.0E-3
5.251,899.9E-3,900.0E-3
5.280,900.0E-3,900.0E-3
5.316,900.0E-3,900.0E-3
5.366,900.0E-3,900.0E-3
5.436,900.0E-3,900.0E-3
5.506,900.0E-3,900.0E-3
5.576,900.0E-3,900.0E-3
5.646,900.0E-3,900.0E-3
5.716,900.0E-3,900.0E-3
5.786,900.0E-3,900.0E-3
5.856,900.0E-3,900.0E-3
5.926,900.0E-3,900.0E-3
5.996,900.0E-3,900.0E-3
6.000,900.0E-3,900.0E-3
6.000,900.0E-3,898.5E-3
6.000,900.0E-3,895.5E-3
6.000,900.0E-3,889.4E-3
6.000,900.0E-3,877.4E-3
6.000,900.0E-3,853.2E-3
6.000,900.0E-3,805.0E-3
6.000,900.0E-3,708.4E-3
6.000,900.0E-3,515.4E-3
6.000,900.0E-3,257.7E-3
6.000,900.0E-3,0.000
6.000,900.0E-3,0.000
6.000,900.0E-3,0.000
6.000,900.0E-3,0.000
6.000,900.0E-3,0.000
6.000,900.0E-3,0.000
6.000,900.0E-3,0.000
6.000,900.0E-3,0.000
6.000,900.0E-3,0.000
6.000,900.0E-3,0.000
6.000,900.1E-3,0.000
6.000,900.1E-3,0.000
6.000,900.2E-3,0.000
6.000,900.4E-3,0.000
6.000,900.8E-3,0.000
6.000,901.7E-3,0.000
6.000,903.3E-3,0.000
6.000,906.6E-3,0.000
6.000,913.2E-3,0.000
6.001,926.2E-3,0.000
6.002,951.7E-3,0.000
6.004,1.000,0.000
6.006,1.061,0.000
6.008,1.118,0.000
6.011,1.171,0.000
6.013,1.220,0.000
6.016,1.265,0.000
6.018,1.308,0.000
6.021,1.348,0.000
6.023,1.386,0.000
6.026,1.422,0.000
6.029,1.455,0.000
6.032,1.486,0.000
6.035,1.515,0.000
6.038,1.541,0.000
6.041,1.566,0.000
6.045,1.589,0.000
6.048,1.610,0.000
6.052,1.630,0.000
6.056,1.648,0.000
6.060,1.664,0.000
6.064,1.679,0.000
6.068,1.692,0.000
6.072,1.704,0.000
6.077,1.714,0.000
6.082,1.724,0.000
6.087,1.732,0.000
6.093,1.740,0.000
6.099,1.746,0.000
6.105,1.752,0.000
6.112,1.756,0.000
6.119,1.760,0.000
6.127,1.764,0.000
6.135,1.766,0.000
6.144,1.768,0.000
6.155,1.770,0.000
6.166,1.771,0.000
6.178,1.772,0.000
6.193,1.773,0.000
6.209,1.773,0.000
6.228,1.774,0.000
6.251,1.774,0.000
6.280,1.774,0.000
6.316,1.774,0.000
6.366,1.774,0.000
6.436,1.774,0.000
6.506,1.774,0.000
6.576,1.774,0.000
6.646,1.774,0.000
6.716,1.774,0.000
6.786,1.774,0.000
6.856,1.774,0.000
6.926,1.774,0.000
6.963,1.774,0.000
7.000,1.774,0.000
