time,v_out,v_in
0.000,1.752,0.000
7.000E-3,1.752,0.000
21.00E-3,1.752,0.000
49.00E-3,1.752,0.000
105.0E-3,1.752,0.000
175.0E-3,1.752,0.000
245.0E-3,1.752,0.000
315.0E-3,1.752,0.000
385.0E-3,1.752,0.000
455.0E-3,1.752,0.000
525.0E-3,1.752,0.000
595.0E-3,1.752,0.000
665.0E-3,1.752,0.000
735.0E-3,1.752,0.000
805.0E-3,1.752,0.000
875.0E-3,1.752,0.000
945.0E-3,1.752,0.000
1.000,1.752,0.000
1.000,1.752,1.508E-3
1.000,1.752,4.525E-3
1.000,1.752,10.56E-3
1.000,1.752,22.63E-3
1.000,1.752,46.76E-3
1.000,1.752,95.03E-3
1.000,1.752,191.6E-3
1.000,1.752,384.6E-3
1.000,1.752,770.8E-3
1.000,1.752,1.285
1.000,1.752,1.800
1.000,1.752,1.800
1.000,1.752,1.800
1.000,1.752,1.800
1.000,1.752,1.800
1.000,1.752,1.800
1.000,1.752,1.800
1.000,1.752,1.800
1.000,1.752,1.800
1.000,1.752,1.800
1.000,1.752,1.800
1.000,1.752,1.800
1.000,1.752,1.800
1.000,1.752,1.800
1.000,1.752,1.800
1.000,1.751,1.800
1.000,1.750,1.800
1.000,1.749,1.800
1.000,1.746,1.800
1.000,1.740,1.800
1.001,1.727,1.800
1.002,1.703,1.800
1.004,1.655,1.800
1.007,1.564,1.800
1.011,1.468,1.800
1.015,1.379,1.800
1.019,1.295,1.800
1.023,1.215,1.800
1.027,1.140,1.800
1.031,1.068,1.800
1.035,999.3E-3,1.800
1.039,933.9E-3,1.800
1.044,871.6E-3,1.800
1.048,812.3E-3,1.800
1.053,756.0E-3,1.800
1.057,702.5E-3,1.800
1.062,651.9E-3,1.800
1.067,604.0E-3,1.800
1.072,558.7E-3,1.800
1.078,516.0E-3,1.800
1.083,475.8E-3,1.800
1.089,438.1E-3,1.800
1.094,402.6E-3,1.800
1.100,369.4E-3,1.800
1.106,338.5E-3,1.800
1.113,309.6E-3,1.800
1.119,282.7E-3,1.800
1.126,257.8E-3,1.800
1.133,234.8E-3,1.800
1.140,213.6E-3,1.800
1.148,194.0E-3,1.800
1.155,176.2E-3,1.800
1.164,159.9E-3,1.800
1.172,145.0E-3,1.800
1.181,131.6E-3,1.800
1.190,119.6E-3,1.800
1.200,108.8E-3,1.800
1.210,99.13E-3,1.800
1.221,90.61E-3,1.800
1.233,83.14E-3,1.800
1.245,76.63E-3,1.800
1.258,71.01E-3,1.800
1.272,66.21E-3,1.800
1.287,62.15E-3,1.800
1.303,58.78E-3,1.800
1.320,56.01E-3,1.800
1.339,53.79E-3,1.800
1.360,52.04E-3,1.800
1.383,50.70E-3,1.800
1.408,49.71E-3,1.800
1.437,49.00E-3,1.800
1.471,48.53E-3,1.800
1.509,48.24E-3,1.800
1.556,48.08E-3,1.800
1.613,48.01E-3,1.800
1.683,47.99E-3,1.800
1.753,47.99E-3,1.800
1.823,48.00E-3,1.800
1.893,48.00E-3,1.800
1.963,48.01E-3,1.800
2.000,48.01E-3,1.800
2.000,48.01E-3,1.798
2.000,48.01E-3,1.795
2.000,48.01E-3,1.787
2.000,48.01E-3,1.773
2.000,48.01E-3,1.744
2.000,48.01E-3,1.687
2.000,48.01E-3,1.571
2.000,48.01E-3,1.341
2.000,48.01E-3,880.2E-3
2.000,48.01E-3,419.4E-3
2.000,48.01E-3,189.0E-3
2.000,48.02E-3,94.50E-3
2.000,48.02E-3,0.000
2.000,48.02E-3,0.000
2.000,48.02E-3,0.000
2.000,48.02E-3,0.000
2.000,48.02E-3,0.000
2.000,48.02E-3,0.000
2.000,48.02E-3,0.000
2.000,48.02E-3,0.000
2.000,48.02E-3,0.000
2.000,48.03E-3,0.000
2.000,48.05E-3,0.000
2.000,48.07E-3,0.000
2.000,48.13E-3,0.000
2.000,48.25E-3,0.000
2.000,48.48E-3,0.000
2.000,48.94E-3,0.000
2.000,49.86E-3,0.000
2.000,51.71E-3,0.000
2.000,55.39E-3,0.000
2.001,62.73E-3,0.000
2.001,77.32E-3,0.000
2.002,106.1E-3,0.000
2.004,162.3E-3,0.000
2.008,262.4E-3,0.000
2.012,357.2E-3,0.000
2.016,445.2E-3,0.000
2.020,529.0E-3,0.000
2.024,607.7E-3,0.000
2.028,682.4E-3,0.000
2.032,753.6E-3,0.000
2.037,821.5E-3,0.000
2.041,886.2E-3,0.000
2.045,947.8E-3,0.000
2.050,1.006,0.000
2.055,1.062,0.000
2.059,1.115,0.000
2.064,1.165,0.000
2.069,1.212,0.000
2.074,1.256,0.000
2.080,1.298,0.000
2.085,1.338,0.000
2.091,1.375,0.000
2.097,1.409,0.000
2.103,1.442,0.000
2.109,1.472,0.000
2.115,1.500,0.000
2.122,1.526,0.000
2.129,1.551,0.000
2.136,1.573,0.000
2.143,1.594,0.000
2.151,1.613,0.000
2.159,1.630,0.000
2.167,1.646,0.000
2.176,1.660,0.000
2.185,1.673,0.000
2.194,1.685,0.000
2.204,1.695,0.000
2.215,1.704,0.000
2.226,1.712,0.000
2.237,1.719,0.000
2.250,1.726,0.000
2.263,1.731,0.000
2.277,1.735,0.000
2.293,1.739,0.000
2.309,1.742,0.000
2.327,1.745,0.000
2.347,1.747,0.000
2.368,1.748,0.000
2.392,1.750,0.000
2.419,1.751,0.000
2.449,1.751,0.000
2.485,1.752,0.000
2.526,1.752,0.000
2.576,1.752,0.000
2.638,1.752,0.000
2.708,1.752,0.000
2.778,1.752,0.000
2.848,1.752,0.000
2.918,1.752,0.000
2.988,1.752,0.000
3.000,1.752,0.000
3.000,1.752,1.508E-3
3.000,1.752,4.525E-3
3.000,1.752,10.56E-3
3.000,1.752,22.63E-3
3.000,1.752,46.76E-3
3.000,1.752,95.03E-3
3.000,1.752,191.6E-3
3.000,1.752,384.6E-3
3.000,1.752,642.3E-3
3.000,1.752,900.0E-3
3.000,1.752,900.0E-3
3.000,1.752,900.0E-3
3.000,1.752,900.0E-3
3.000,1.752,900.0E-3
3.000,1.752,900.0E-3
3.000,1.752,900.0E-3
3.000,1.752,900.0E-3
3.000,1.752,900.0E-3
3.000,1.752,900.0E-3
3.000,1.752,900.0E-3
3.000,1.752,900.0E-3
3.000,1.752,900.0E-3
3.000,1.752,900.0E-3
3.000,1.752,900.0E-3
3.000,1.751,900.0E-3
3.000,1.750,900.0E-3
3.000,1.749,900.0E-3
3.000,1.746,900.0E-3
3.001,1.740,900.0E-3
3.002,1.727,900.0E-3
3.004,1.704,900.0E-3
3.007,1.658,900.0E-3
3.012,1.598,900.0E-3
3.017,1.543,900.0E-3
3.022,1.491,900.0E-3
3.027,1.443,900.0E-3
3.032,1.398,900.0E-3
3.038,1.356,900.0E-3
3.043,1.317,900.0E-3
3.049,1.280,900.0E-3
3.054,1.245,900.0E-3
3.060,1.213,900.0E-3
3.066,1.182,900.0E-3
3.073,1.154,900.0E-3
3.079,1.128,900.0E-3
3.086,1.103,900.0E-3
3.093,1.081,900.0E-3
3.100,1.060,900.0E-3
3.108,1.041,900.0E-3
3.116,1.023,900.0E-3
3.124,1.008,900.0E-3
3.133,993.2E-3,900.0E-3
3.142,980.1E-3,900.0E-3
3.151,968.4E-3,900.0E-3
3.161,957.9E-3,900.0E-3
3.172,948.6E-3,900.0E-3
3.183,940.4E-3,900.0E-3
3.194,933.2E-3,900.0E-3
3.207,927.0E-3,900.0E-3
3.220,921.6E-3,900.0E-3
3.234,917.0E-3,900.0E-3
3.249,913.1E-3,900.0E-3
3.266,909.9E-3,900.0E-3
3.283,907.3E-3,900.0E-3
3.303,905.2E-3,900.0E-3
3.324,903.6E-3,900.0E-3
3.348,902.4E-3,900.0E-3
3.374,901.5E-3,900.0E-3
3.405,900.8E-3,900.0E-3
3.439,900.4E-3,900.0E-3
3.480,900.2E-3,900.0E-3
3.529,900.0E-3,900.0E-3
3.589,900.0E-3,900.0E-3
3.659,900.0E-3,900.0E-3
3.729,900.0E-3,900.0E-3
3.799,900.0E-3,900.0E-3
3.869,900.0E-3,900.0E-3
3.939,900.0E-3,900.0E-3
4.000,900.0E-3,900.0E-3
4.000,900.0E-3,901.5E-3
4.000,900.0E-3,904.5E-3
4.000,900.0E-3,910.6E-3
4.000,900.0E-3,922.6E-3
4.000,900.0E-3,946.8E-3
4.000,900.0E-3,995.0E-3
4.000,900.0E-3,1.092
4.000,900.0E-3,1.285
4.000,900.0E-3,1.542
4.000,900.0E-3,1.800
4.000,900.0E-3,1.800
4.000,900.0E-3,1.800
4.000,900.0E-3,1.800
4.000,900.0E-3,1.800
4.000,900.0E-3,1.800
4.000,900.0E-3,1.800
4.000,900.0E-3,1.800
4.000,900.0E-3,1.800
4.000,900.0E-3,1.800
4.000,900.0E-3,1.800
4.000,899.9E-3,1.800
4.000,899.9E-3,1.800
4.000,899.8E-3,1.800
4.000,899.6E-3,1.800
4.000,899.2E-3,1.800
4.000,898.4E-3,1.800
4.000,896.9E-3,1.800
4.000,893.8E-3,1.800
4.001,887.6E-3,1.800
4.002,875.5E-3,1.800
4.004,851.7E-3,1.800
4.007,806.1E-3,1.800
4.012,746.1E-3,1.800
4.017,690.6E-3,1.800
4.022,639.2E-3,1.800
4.027,591.1E-3,1.800
4.032,546.4E-3,1.800
4.038,504.5E-3,1.800
4.043,465.0E-3,1.800
4.049,427.9E-3,1.800
4.054,393.2E-3,1.800
4.060,360.6E-3,1.800
4.066,330.2E-3,1.800
4.073,301.9E-3,1.800
4.079,275.6E-3,1.800
4.086,251.2E-3,1.800
4.093,228.7E-3,1.800
4.100,208.0E-3,1.800
4.108,188.9E-3,1.800
4.116,171.5E-3,1.800
4.124,155.6E-3,1.800
4.133,141.2E-3,1.800
4.142,128.1E-3,1.800
4.151,116.4E-3,1.800
4.161,106.0E-3,1.800
4.172,96.65E-3,1.800
4.183,88.43E-3,1.800
4.194,81.23E-3,1.800
4.207,74.98E-3,1.800
4.220,69.59E-3,1.800
4.234,65.01E-3,1.800
4.249,61.15E-3,1.800
4.266,57.95E-3,1.800
4.283,55.34E-3,1.800
4.303,53.26E-3,1.800
4.324,51.63E-3,1.800
4.348,50.39E-3,1.800
4.374,49.48E-3,1.800
4.404,48.85E-3,1.800
4.439,48.44E-3,1.800
4.480,48.19E-3,1.800
4.529,48.06E-3,1.800
4.589,48.00E-3,1.800
4.659,47.99E-3,1.800
4.729,48.00E-3,1.800
4.799,48.00E-3,1.800
4.869,48.01E-3,1.800
4.939,48.01E-3,1.800
5.000,48.01E-3,1.800
5.000,48.01E-3,1.798
5.000,48.01E-3,1.795
5.000,48.01E-3,1.789
5.000,48.01E-3,1.777
5.000,48.01E-3,1.753
5.000,48.01E-3,1.705
5.000,48.01E-3,1.608
5.000,48.01E-3,1.415
5.000,48.01E-3,1.158
5.000,48.01E-3,900.0E-3
5.000,48.01E-3,900.0E-3
5.000,48.01E-3,900.0E-3
5.000,48.01E-3,900.0E-3
5.000,48.01E-3,900.0E-3
5.000,48.01E-3,900.0E-3
5.000,48.01E-3,900.0E-3
5.000,48.02E-3,900.0E-3
5.000,48.02E-3,900.0E-3
5.000,48.02E-3,900.0E-3
5.000,48.04E-3,900.0E-3
5.000,48.06E-3,900.0E-3
5.000,48.11E-3,900.0E-3
5.000,48.21E-3,900.0E-3
5.000,48.40E-3,900.0E-3
5.000,48.79E-3,900.0E-3
5.000,49.56E-3,900.0E-3
5.000,51.11E-3,900.0E-3
5.000,54.19E-3,900.0E-3
5.001,60.32E-3,900.0E-3
5.002,72.45E-3,900.0E-3
5.004,96.20E-3,900.0E-3
5.007,141.7E-3,900.0E-3
5.012,201.9E-3,900.0E-3
5.017,257.6E-3,900.0E-3
5.022,309.2E-3,900.0E-3
5.027,357.4E-3,900.0E-3
5.032,402.2E-3,900.0E-3
5.038,444.2E-3,900.0E-3
5.043,483.7E-3,900.0E-3
5.049,520.8E-3,900.0E-3
5.055,555.6E-3,900.0E-3
5.061,588.2E-3,900.0E-3
5.067,618.6E-3,900.0E-3
5.073,646.9E-3,900.0E-3
5.080,673.1E-3,900.0E-3
5.086,697.5E-3,900.0E-3
5.094,720.0E-3,900.0E-3
5.101,740.7E-3,900.0E-3
5.108,759.7E-3,900.0E-3
5.116,777.1E-3,900.0E-3
5.125,792.9E-3,900.0E-3
5.133,807.3E-3,900.0E-3
5.142,820.3E-3,900.0E-3
5.152,832.0E-3,900.0E-3
5.162,842.4E-3,900.0E-3
5.172,851.7E-3,900.0E-3
5.183,859.9E-3,900.0E-3
5.195,867.0E-3,900.0E-3
5.207,873.2E-3,900.0E-3
5.221,878.6E-3,900.0E-3
5.235,883.2E-3,900.0E-3
5.250,887.0E-3,900.0E-3
5.266,890.2E-3,900.0E-3
5.284,892.8E-3,900.0E-3
5.304,894.8E-3,900.0E-3
5.325,896.4E-3,900.0E-3
5.349,897.7E-3,900.0E-3
5.376,898.6E-3,900.0E-3
5.406,899.2E-3,900.0E-3
5.441,899.6E-3,900.0E-3
5.482,899.8E-3,900.0E-3
5.531,900.0E-3,900.0E-3
5.592,900.0E-3,900.0E-3
5.662,900.0E-3,900.0E-3
5.732,900.0E-3,900.0E-3
5.802,900.0E-3,900.0E-3
5.872,900.0E-3,900.0E-3
5.942,900.0E-3,900.0E-3
6.000,900.0E-3,900.0E-3
6.000,900.0E-3,898.5E-3
6.000,900.0E-3,895.5E-3
6.000,900.0E-3,889.4E-3
6.000,900.0E-3,877.4E-3
6.000,900.0E-3,853.2E-3
6.000,900.0E-3,805.0E-3
6.000,900.0E-3,708.4E-3
6.000,900.0E-3,515.4E-3
6.000,900.0E-3,257.7E-3
6.000,900.0E-3,0.000
6.000,900.0E-3,0.000
6.000,900.0E-3,0.000
6.000,900.0E-3,0.000
6.000,900.0E-3,0.000
6.000,900.0E-3,0.000
6.000,900.0E-3,0.000
6.000,900.0E-3,0.000
6.000,900.0E-3,0.000
6.000,900.0E-3,0.000
6.000,900.0E-3,0.000
6.000,900.1E-3,0.000
6.000,900.1E-3,0.000
6.000,900.2E-3,0.000
6.000,900.4E-3,0.000
6.000,900.8E-3,0.000
6.000,901.6E-3,0.000
6.000,903.1E-3,0.000
6.000,906.2E-3,0.000
6.001,912.3E-3,0.000
6.002,924.4E-3,0.000
6.004,948.2E-3,0.000
6.007,993.7E-3,0.000
6.012,1.054,0.000
6.017,1.110,0.000
6.022,1.161,0.000
6.027,1.209,0.000
6.032,1.254,0.000
6.038,1.296,0.000
6.043,1.336,0.000
6.049,1.373,0.000
6.055,1.408,0.000
6.061,1.440,0.000
6.067,1.471,0.000
6.073,1.499,0.000
6.080,1.525,0.000
6.086,1.549,0.000
6.094,1.572,0.000
6.101,1.593,0.000
6.109,1.612,0.000
6.116,1.629,0.000
6.125,1.645,0.000
6.133,1.659,0.000
6.142,1.672,0.000
6.152,1.684,0.000
6.162,1.694,0.000
6.172,1.704,0.000
6.183,1.712,0.000
6.195,1.719,0.000
6.207,1.725,0.000
6.221,1.731,0.000
6.235,1.735,0.000
6.250,1.739,0.000
6.267,1.742,0.000
6.284,1.745,0.000
6.304,1.747,0.000
6.325,1.748,0.000
6.349,1.750,0.000
6.376,1.751,0.000
6.406,1.751,0.000
6.441,1.752,0.000
6.482,1.752,0.000
6.531,1.752,0.000
6.592,1.752,0.000
6.662,1.752,0.000
6.732,1.752,0.000
6.802,1.752,0.000
6.872,1.752,0.000
6.942,1.752,0.000
7.000,1.752,0.000
