time,v_in,v_out
0.000,0.000,21.03E-3
7.000E-3,0.000,21.03E-3
21.00E-3,0.000,21.03E-3
49.00E-3,0.000,21.03E-3
105.0E-3,0.000,21.03E-3
175.0E-3,0.000,21.03E-3
245.0E-3,0.000,21.03E-3
315.0E-3,0.000,21.03E-3
385.0E-3,0.000,21.03E-3
455.0E-3,0.000,21.03E-3
525.0E-3,0.000,21.03E-3
595.0E-3,0.000,21.03E-3
665.0E-3,0.000,21.03E-3
735.0E-3,0.000,21.03E-3
805.0E-3,0.000,21.03E-3
875.0E-3,0.000,21.03E-3
945.0E-3,0.000,21.03E-3
1.000,0.000,21.03E-3
1.000,1.508E-3,21.03E-3
1.000,2.674E-3,21.03E-3
1.000,5.006E-3,21.03E-3
1.000,9.669E-3,21.03E-3
1.000,18.99E-3,21.03E-3
1.000,37.65E-3,21.03E-3
1.000,74.95E-3,21.04E-3
1.000,149.6E-3,21.07E-3
1.000,276.6E-3,21.17E-3
1.000,410.3E-3,21.31E-3
1.000,550.8E-3,21.50E-3
1.000,702.2E-3,21.72E-3
1.000,866.1E-3,21.99E-3
1.000,1.048,22.30E-3
1.000,1.253,22.66E-3
1.000,1.488,23.08E-3
1.000,1.644,23.35E-3
1.000,1.722,23.49E-3
1.000,1.800,23.63E-3
1.000,1.800,23.63E-3
1.000,1.800,23.64E-3
1.000,1.800,23.65E-3
1.000,1.800,23.67E-3
1.000,1.800,23.71E-3
1.000,1.800,23.78E-3
1.000,1.800,23.91E-3
1.000,1.800,24.07E-3
1.000,1.800,24.20E-3
1.000,1.800,24.29E-3
1.000,1.800,24.37E-3
1.000,1.800,24.42E-3
1.000,1.800,24.46E-3
1.000,1.800,24.49E-3
1.000,1.800,24.50E-3
1.000,1.800,24.52E-3
1.000,1.800,24.52E-3
1.000,1.800,24.52E-3
1.000,1.800,24.52E-3
1.000,1.800,24.53E-3
1.000,1.800,24.53E-3
1.000,1.800,24.53E-3
1.000,1.800,24.53E-3
1.000,1.800,24.53E-3
1.000,1.800,24.54E-3
1.000,1.800,24.56E-3
1.000,1.800,24.60E-3
1.000,1.800,24.68E-3
1.000,1.800,24.84E-3
1.001,1.800,25.16E-3
1.001,1.800,25.79E-3
1.003,1.800,27.06E-3
1.005,1.800,29.59E-3
1.010,1.800,34.63E-3
1.013,1.800,37.82E-3
1.020,1.800,44.17E-3
1.024,1.800,47.75E-3
1.028,1.800,51.84E-3
1.032,1.800,55.69E-3
1.036,1.800,59.74E-3
1.040,1.800,63.86E-3
1.045,1.800,68.11E-3
1.049,1.800,72.47E-3
1.054,1.800,76.96E-3
1.059,1.800,81.57E-3
1.064,1.800,86.29E-3
1.069,1.800,91.13E-3
1.074,1.800,96.09E-3
1.080,1.800,101.2E-3
1.086,1.800,106.3E-3
1.091,1.800,111.6E-3
1.097,1.800,117.0E-3
1.103,1.800,122.5E-3
1.110,1.800,128.1E-3
1.116,1.800,133.8E-3
1.123,1.800,139.6E-3
1.129,1.800,145.6E-3
1.136,1.800,151.6E-3
1.143,1.800,157.7E-3
1.150,1.800,163.2E-3
1.157,1.800,169.6E-3
1.164,1.800,175.3E-3
1.172,1.800,181.8E-3
1.179,1.800,187.7E-3
1.185,1.800,193.4E-3
1.194,1.800,200.1E-3
1.201,1.800,206.2E-3
1.208,1.800,212.0E-3
1.216,1.800,218.0E-3
1.223,1.800,224.0E-3
1.231,1.800,230.0E-3
1.238,1.800,236.0E-3
1.246,1.800,242.1E-3
1.254,1.800,248.3E-3
1.262,1.800,254.5E-3
1.270,1.800,260.8E-3
1.278,1.800,267.1E-3
1.287,1.800,273.5E-3
1.295,1.800,279.9E-3
1.304,1.800,286.3E-3
1.313,1.800,292.8E-3
1.322,1.800,299.4E-3
1.331,1.800,306.0E-3
1.340,1.800,312.6E-3
1.350,1.800,319.3E-3
1.359,1.800,326.0E-3
1.369,1.800,332.8E-3
1.379,1.800,339.6E-3
1.389,1.800,346.4E-3
1.399,1.800,353.2E-3
1.409,1.800,360.1E-3
1.420,1.800,367.1E-3
1.431,1.800,374.0E-3
1.441,1.800,381.0E-3
1.452,1.800,388.0E-3
1.463,1.800,395.0E-3
1.475,1.800,402.1E-3
1.486,1.800,409.2E-3
1.498,1.800,416.3E-3
1.509,1.800,423.4E-3
1.521,1.800,430.6E-3
1.533,1.800,437.7E-3
1.546,1.800,444.9E-3
1.558,1.800,452.1E-3
1.571,1.800,459.3E-3
1.583,1.800,466.5E-3
1.596,1.800,473.7E-3
1.610,1.800,481.0E-3
1.623,1.800,488.2E-3
1.636,1.800,495.5E-3
1.650,1.800,502.7E-3
1.664,1.800,510.0E-3
1.678,1.800,517.2E-3
1.693,1.800,524.5E-3
1.707,1.800,531.8E-3
1.722,1.800,539.0E-3
1.737,1.800,546.3E-3
1.752,1.800,553.5E-3
1.767,1.800,560.7E-3
1.783,1.800,568.0E-3
1.799,1.800,575.2E-3
1.815,1.800,582.4E-3
1.831,1.800,589.6E-3
1.847,1.800,596.7E-3
1.864,1.800,603.9E-3
1.881,1.800,611.0E-3
1.898,1.800,618.2E-3
1.915,1.800,625.3E-3
1.933,1.800,632.4E-3
1.951,1.800,639.4E-3
1.969,1.800,646.5E-3
1.988,1.800,653.5E-3
2.000,1.800,658.1E-3
2.000,1.798,658.1E-3
2.000,1.795,658.1E-3
2.000,1.788,658.1E-3
2.000,1.774,658.1E-3
2.000,1.746,658.1E-3
2.000,1.690,658.1E-3
2.000,1.579,658.0E-3
2.000,1.356,657.8E-3
2.000,1.002,657.4E-3
2.000,597.6E-3,656.6E-3
2.000,515.6E-3,656.5E-3
2.000,351.5E-3,656.1E-3
2.000,331.4E-3,656.0E-3
2.000,291.1E-3,655.9E-3
2.000,270.1E-3,655.7E-3
2.000,246.7E-3,655.6E-3
2.000,225.4E-3,655.4E-3
2.000,207.9E-3,655.1E-3
2.000,191.9E-3,654.8E-3
2.000,177.0E-3,654.5E-3
2.000,162.3E-3,654.0E-3
2.000,147.1E-3,653.4E-3
2.000,130.3E-3,652.5E-3
2.000,108.8E-3,651.0E-3
2.000,82.38E-3,648.4E-3
2.000,63.68E-3,646.1E-3
2.000,47.62E-3,643.8E-3
2.000,32.05E-3,641.4E-3
2.000,17.48E-3,639.2E-3
2.000,8.739E-3,637.8E-3
2.000,4.370E-3,637.1E-3
2.000,0.000,636.5E-3
2.000,0.000,636.3E-3
2.000,0.000,636.1E-3
2.000,0.000,635.9E-3
2.000,0.000,635.5E-3
2.000,0.000,634.7E-3
2.000,0.000,633.5E-3
2.000,0.000,632.2E-3
2.000,0.000,630.9E-3
2.000,0.000,629.5E-3
2.000,0.000,628.0E-3
2.000,0.000,626.3E-3
2.000,0.000,624.5E-3
2.000,0.000,622.5E-3
2.000,0.000,620.3E-3
2.000,0.000,617.8E-3
2.000,0.000,615.2E-3
2.000,0.000,612.2E-3
2.000,0.000,609.0E-3
2.000,0.000,605.4E-3
2.000,0.000,601.4E-3
2.000,0.000,597.1E-3
2.000,0.000,592.3E-3
2.000,0.000,587.0E-3
2.000,0.000,581.1E-3
2.000,0.000,574.6E-3
2.000,0.000,567.4E-3
2.000,0.000,559.5E-3
2.000,0.000,550.7E-3
2.000,0.000,541.0E-3
2.000,0.000,530.2E-3
2.000,0.000,518.3E-3
2.000,0.000,505.1E-3
2.000,0.000,490.5E-3
2.000,0.000,474.3E-3
2.000,0.000,461.9E-3
2.000,0.000,456.1E-3
2.000,0.000,449.8E-3
2.000,0.000,443.8E-3
2.000,0.000,435.0E-3
2.000,0.000,423.1E-3
2.000,0.000,415.0E-3
2.000,0.000,407.9E-3
2.000,0.000,401.4E-3
2.000,0.000,395.4E-3
2.000,0.000,389.8E-3
2.000,0.000,384.5E-3
2.000,0.000,379.6E-3
2.000,0.000,375.0E-3
2.000,0.000,370.6E-3
2.000,0.000,366.5E-3
2.000,0.000,362.7E-3
2.000,0.000,359.0E-3
2.000,0.000,355.4E-3
2.000,0.000,352.0E-3
2.000,0.000,348.7E-3
2.000,0.000,345.5E-3
2.000,0.000,342.3E-3
2.000,0.000,339.1E-3
2.000,0.000,335.9E-3
2.000,0.000,332.7E-3
2.000,0.000,329.3E-3
2.000,0.000,325.9E-3
2.000,0.000,322.5E-3
2.000,0.000,318.9E-3
2.000,0.000,315.3E-3
2.000,0.000,311.6E-3
2.000,0.000,307.9E-3
2.000,0.000,304.2E-3
2.000,0.000,300.5E-3
2.000,0.000,296.9E-3
2.000,0.000,293.2E-3
2.000,0.000,289.6E-3
2.000,0.000,285.9E-3
2.000,0.000,282.3E-3
2.000,0.000,278.7E-3
2.000,0.000,275.1E-3
2.000,0.000,271.4E-3
2.000,0.000,267.9E-3
2.000,0.000,264.3E-3
2.000,0.000,260.7E-3
2.000,0.000,257.1E-3
2.000,0.000,253.6E-3
2.000,0.000,250.1E-3
2.000,0.000,246.5E-3
2.000,0.000,243.0E-3
2.000,0.000,239.5E-3
2.000,0.000,236.0E-3
2.000,0.000,232.5E-3
2.000,0.000,229.0E-3
2.000,0.000,225.5E-3
2.000,0.000,222.1E-3
2.000,0.000,218.6E-3
2.000,0.000,215.2E-3
2.000,0.000,211.7E-3
2.000,0.000,208.3E-3
2.000,0.000,204.9E-3
2.000,0.000,201.4E-3
2.000,0.000,198.0E-3
2.000,0.000,194.6E-3
2.000,0.000,191.2E-3
2.000,0.000,187.8E-3
2.000,0.000,184.5E-3
2.000,0.000,181.1E-3
2.000,0.000,177.7E-3
2.000,0.000,174.4E-3
2.000,0.000,171.0E-3
2.000,0.000,167.7E-3
2.000,0.000,164.3E-3
2.000,0.000,161.0E-3
2.000,0.000,157.7E-3
2.000,0.000,154.4E-3
2.000,0.000,151.1E-3
2.001,0.000,147.8E-3
2.001,0.000,144.5E-3
2.001,0.000,141.2E-3
2.001,0.000,137.9E-3
2.001,0.000,134.7E-3
2.001,0.000,131.4E-3
2.001,0.000,128.2E-3
2.001,0.000,124.9E-3
2.001,0.000,121.7E-3
2.001,0.000,118.5E-3
2.002,0.000,115.2E-3
2.002,0.000,112.0E-3
2.002,0.000,108.8E-3
2.002,0.000,105.7E-3
2.003,0.000,102.5E-3
2.003,0.000,99.33E-3
2.003,0.000,96.19E-3
2.003,0.000,93.06E-3
2.004,0.000,89.95E-3
2.004,0.000,86.85E-3
2.005,0.000,83.78E-3
2.005,0.000,80.72E-3
2.006,0.000,77.69E-3
2.007,0.000,74.68E-3
2.008,0.000,71.70E-3
2.008,0.000,68.74E-3
2.009,0.000,65.83E-3
2.011,0.000,62.94E-3
2.012,0.000,60.10E-3
2.013,0.000,57.31E-3
2.015,0.000,54.57E-3
2.016,0.000,51.89E-3
2.018,0.000,49.27E-3
2.020,0.000,46.72E-3
2.023,0.000,44.26E-3
2.025,0.000,41.88E-3
2.028,0.000,39.60E-3
2.032,0.000,37.43E-3
2.035,0.000,35.38E-3
2.040,0.000,33.45E-3
2.044,0.000,31.65E-3
2.049,0.000,29.99E-3
2.055,0.000,28.48E-3
2.062,0.000,27.12E-3
2.069,0.000,25.91E-3
2.074,0.000,25.20E-3
2.083,0.000,24.26E-3
2.089,0.000,23.67E-3
2.100,0.000,22.96E-3
2.108,0.000,22.53E-3
2.117,0.000,22.21E-3
2.127,0.000,21.92E-3
2.138,0.000,21.68E-3
2.150,0.000,21.48E-3
2.164,0.000,21.33E-3
2.181,0.000,21.21E-3
2.202,0.000,21.12E-3
2.228,0.000,21.07E-3
2.261,0.000,21.04E-3
2.307,0.000,21.02E-3
2.368,0.000,21.02E-3
2.438,0.000,21.03E-3
2.508,0.000,21.03E-3
2.578,0.000,21.03E-3
2.648,0.000,21.03E-3
2.718,0.000,21.03E-3
2.788,0.000,21.03E-3
2.858,0.000,21.03E-3
2.928,0.000,21.03E-3
2.998,0.000,21.03E-3
3.000,0.000,21.03E-3
3.000,1.508E-3,21.03E-3
3.000,4.525E-3,21.03E-3
3.000,10.56E-3,21.03E-3
3.000,22.63E-3,21.03E-3
3.000,46.76E-3,21.04E-3
3.000,95.03E-3,21.06E-3
3.000,191.6E-3,21.16E-3
3.000,380.3E-3,21.43E-3
3.000,596.6E-3,21.82E-3
3.000,748.3E-3,22.11E-3
3.000,824.1E-3,22.26E-3
3.000,900.0E-3,22.41E-3
3.000,900.0E-3,22.42E-3
3.000,900.0E-3,22.42E-3
3.000,900.0E-3,22.43E-3
3.000,900.0E-3,22.46E-3
3.000,900.0E-3,22.50E-3
3.000,900.0E-3,22.57E-3
3.000,900.0E-3,22.68E-3
3.000,900.0E-3,22.82E-3
3.000,900.0E-3,22.89E-3
3.000,900.0E-3,22.92E-3
3.000,900.0E-3,22.92E-3
3.000,900.0E-3,22.92E-3
3.000,900.0E-3,22.92E-3
3.000,900.0E-3,22.92E-3
3.000,900.0E-3,22.92E-3
3.000,900.0E-3,22.92E-3
3.000,900.0E-3,22.93E-3
3.000,900.0E-3,22.95E-3
3.000,900.0E-3,22.98E-3
3.000,900.0E-3,23.04E-3
3.000,900.0E-3,23.16E-3
3.001,900.0E-3,23.39E-3
3.001,900.0E-3,23.87E-3
3.002,900.0E-3,24.83E-3
3.005,900.0E-3,26.74E-3
3.009,900.0E-3,30.55E-3
3.018,900.0E-3,38.12E-3
3.029,900.0E-3,46.81E-3
3.040,900.0E-3,56.03E-3
3.052,900.0E-3,65.83E-3
3.065,900.0E-3,75.87E-3
3.078,900.0E-3,85.96E-3
3.091,900.0E-3,96.06E-3
3.104,900.0E-3,106.2E-3
3.117,900.0E-3,116.2E-3
3.131,900.0E-3,126.2E-3
3.144,900.0E-3,136.1E-3
3.158,900.0E-3,146.0E-3
3.171,900.0E-3,155.8E-3
3.185,900.0E-3,165.5E-3
3.199,900.0E-3,175.2E-3
3.213,900.0E-3,184.8E-3
3.227,900.0E-3,194.4E-3
3.241,900.0E-3,203.8E-3
3.255,900.0E-3,213.2E-3
3.270,900.0E-3,222.6E-3
3.284,900.0E-3,231.8E-3
3.299,900.0E-3,241.1E-3
3.313,900.0E-3,250.2E-3
3.328,900.0E-3,259.3E-3
3.343,900.0E-3,268.3E-3
3.358,900.0E-3,277.2E-3
3.373,900.0E-3,286.1E-3
3.388,900.0E-3,294.9E-3
3.403,900.0E-3,303.6E-3
3.419,900.0E-3,312.3E-3
3.434,900.0E-3,320.9E-3
3.450,900.0E-3,329.4E-3
3.466,900.0E-3,337.9E-3
3.482,900.0E-3,346.3E-3
3.498,900.0E-3,354.6E-3
3.514,900.0E-3,362.9E-3
3.530,900.0E-3,371.1E-3
3.546,900.0E-3,379.2E-3
3.563,900.0E-3,387.3E-3
3.579,900.0E-3,395.3E-3
3.596,900.0E-3,403.2E-3
3.613,900.0E-3,411.0E-3
3.630,900.0E-3,418.8E-3
3.647,900.0E-3,426.6E-3
3.664,900.0E-3,434.2E-3
3.682,900.0E-3,441.8E-3
3.700,900.0E-3,449.3E-3
3.717,900.0E-3,456.8E-3
3.735,900.0E-3,464.2E-3
3.753,900.0E-3,471.5E-3
3.771,900.0E-3,478.8E-3
3.790,900.0E-3,485.9E-3
3.808,900.0E-3,493.1E-3
3.827,900.0E-3,500.1E-3
3.846,900.0E-3,507.1E-3
3.865,900.0E-3,514.0E-3
3.884,900.0E-3,520.9E-3
3.903,900.0E-3,527.6E-3
3.923,900.0E-3,534.4E-3
3.943,900.0E-3,541.0E-3
3.963,900.0E-3,547.6E-3
3.983,900.0E-3,554.1E-3
4.000,900.0E-3,559.6E-3
4.000,901.5E-3,559.6E-3
4.000,904.5E-3,559.6E-3
4.000,910.6E-3,559.6E-3
4.000,922.6E-3,559.6E-3
4.000,946.8E-3,559.6E-3
4.000,995.0E-3,559.6E-3
4.000,1.092,559.7E-3
4.000,1.285,559.9E-3
4.000,1.511,560.3E-3
4.000,1.656,560.6E-3
4.000,1.800,560.8E-3
4.000,1.800,560.8E-3
4.000,1.800,560.9E-3
4.000,1.800,560.9E-3
4.000,1.800,560.9E-3
4.000,1.800,560.9E-3
4.000,1.800,561.0E-3
4.000,1.800,561.1E-3
4.000,1.800,561.2E-3
4.000,1.800,561.3E-3
4.000,1.800,561.3E-3
4.000,1.800,561.3E-3
4.000,1.800,561.3E-3
4.000,1.800,561.3E-3
4.000,1.800,561.3E-3
4.000,1.800,561.3E-3
4.000,1.800,561.3E-3
4.000,1.800,561.3E-3
4.000,1.800,561.3E-3
4.000,1.800,561.4E-3
4.000,1.800,561.4E-3
4.000,1.800,561.5E-3
4.001,1.800,561.6E-3
4.001,1.800,561.9E-3
4.002,1.800,562.4E-3
4.005,1.800,563.5E-3
4.009,1.800,565.7E-3
4.019,1.800,570.1E-3
4.032,1.800,576.0E-3
4.047,1.800,582.6E-3
4.063,1.800,589.6E-3
4.079,1.800,596.9E-3
4.096,1.800,604.3E-3
4.114,1.800,611.7E-3
4.132,1.800,619.0E-3
4.150,1.800,626.4E-3
4.168,1.800,633.6E-3
4.186,1.800,640.8E-3
4.205,1.800,648.0E-3
4.223,1.800,655.1E-3
4.242,1.800,662.1E-3
4.261,1.800,669.0E-3
4.281,1.800,676.0E-3
4.300,1.800,682.9E-3
4.320,1.800,689.7E-3
4.340,1.800,696.5E-3
4.361,1.800,703.3E-3
4.382,1.800,710.1E-3
4.403,1.800,716.8E-3
4.424,1.800,723.4E-3
4.446,1.800,730.0E-3
4.468,1.800,736.6E-3
4.490,1.800,743.2E-3
4.513,1.800,749.7E-3
4.536,1.800,756.1E-3
4.559,1.800,762.5E-3
4.583,1.800,768.8E-3
4.607,1.800,775.1E-3
4.632,1.800,781.4E-3
4.657,1.800,787.6E-3
4.682,1.800,793.7E-3
4.708,1.800,799.8E-3
4.734,1.800,805.8E-3
4.761,1.800,811.8E-3
4.788,1.800,817.7E-3
4.815,1.800,823.6E-3
4.843,1.800,829.4E-3
4.872,1.800,835.1E-3
4.901,1.800,840.8E-3
4.930,1.800,846.4E-3
4.960,1.800,851.9E-3
4.991,1.800,857.4E-3
5.000,1.800,859.0E-3
5.000,1.798,859.0E-3
5.000,1.795,859.0E-3
5.000,1.789,859.0E-3
5.000,1.777,859.0E-3
5.000,1.753,859.0E-3
5.000,1.705,859.0E-3
5.000,1.608,858.9E-3
5.000,1.415,858.7E-3
5.000,1.151,858.2E-3
5.000,1.025,858.0E-3
5.000,900.0E-3,857.7E-3
5.000,900.0E-3,857.7E-3
5.000,900.0E-3,857.7E-3
5.000,900.0E-3,857.7E-3
5.000,900.0E-3,857.7E-3
5.000,900.0E-3,857.6E-3
5.000,900.0E-3,857.6E-3
5.000,900.0E-3,857.4E-3
5.000,900.0E-3,857.3E-3
5.000,900.0E-3,857.2E-3
5.000,900.0E-3,857.2E-3
5.000,900.0E-3,857.2E-3
5.000,900.0E-3,857.2E-3
5.000,900.0E-3,857.2E-3
5.000,900.0E-3,857.2E-3
5.000,900.0E-3,857.2E-3
5.000,900.0E-3,857.2E-3
5.000,900.0E-3,857.2E-3
5.000,900.0E-3,857.2E-3
5.000,900.0E-3,857.2E-3
5.000,900.0E-3,857.2E-3
5.000,900.0E-3,857.2E-3
5.001,900.0E-3,857.2E-3
5.001,900.0E-3,857.2E-3
5.003,900.0E-3,857.1E-3
5.005,900.0E-3,857.1E-3
5.010,900.0E-3,856.9E-3
5.020,900.0E-3,856.7E-3
5.041,900.0E-3,856.2E-3
5.075,900.0E-3,855.5E-3
5.117,900.0E-3,854.6E-3
5.164,900.0E-3,853.8E-3
5.218,900.0E-3,853.0E-3
5.277,900.0E-3,852.2E-3
5.341,900.0E-3,851.5E-3
5.411,900.0E-3,850.9E-3
5.481,900.0E-3,850.3E-3
5.551,900.0E-3,849.8E-3
5.621,900.0E-3,849.4E-3
5.691,900.0E-3,849.1E-3
5.761,900.0E-3,848.8E-3
5.831,900.0E-3,848.6E-3
5.901,900.0E-3,848.4E-3
5.971,900.0E-3,848.2E-3
6.000,900.0E-3,848.1E-3
6.000,898.5E-3,848.1E-3
6.000,895.5E-3,848.1E-3
6.000,889.4E-3,848.1E-3
6.000,877.4E-3,848.1E-3
6.000,853.2E-3,848.1E-3
6.000,805.0E-3,848.1E-3
6.000,708.4E-3,848.0E-3
6.000,653.4E-3,847.9E-3
6.000,580.6E-3,847.8E-3
6.000,547.7E-3,847.7E-3
6.000,498.0E-3,847.4E-3
6.000,475.1E-3,847.2E-3
6.000,451.2E-3,846.9E-3
6.000,430.3E-3,846.5E-3
6.000,413.1E-3,845.9E-3
6.000,397.1E-3,845.3E-3
6.000,381.7E-3,844.4E-3
6.000,366.0E-3,843.2E-3
6.000,348.6E-3,841.4E-3
6.000,325.9E-3,838.4E-3
6.000,302.2E-3,834.0E-3
6.000,284.0E-3,829.9E-3
6.000,267.6E-3,825.5E-3
6.000,251.7E-3,820.8E-3
6.000,235.4E-3,815.9E-3
6.000,221.5E-3,811.6E-3
6.000,202.8E-3,805.8E-3
6.000,181.7E-3,799.3E-3
6.000,157.8E-3,792.0E-3
6.000,130.2E-3,783.4E-3
6.000,98.09E-3,773.5E-3
6.000,59.64E-3,761.7E-3
6.000,29.82E-3,752.5E-3
6.000,14.91E-3,747.8E-3
6.000,0.000,743.2E-3
6.000,0.000,742.8E-3
6.000,0.000,742.2E-3
6.000,0.000,741.4E-3
6.000,0.000,739.7E-3
6.000,0.000,736.9E-3
6.000,0.000,734.4E-3
6.000,0.000,731.8E-3
6.000,0.000,729.0E-3
6.000,0.000,725.9E-3
6.000,0.000,722.4E-3
6.000,0.000,718.6E-3
6.000,0.000,714.4E-3
6.000,0.000,709.6E-3
6.000,0.000,704.3E-3
6.000,0.000,698.5E-3
6.000,0.000,691.9E-3
6.000,0.000,684.7E-3
6.000,0.000,676.6E-3
6.000,0.000,667.6E-3
6.000,0.000,657.5E-3
6.000,0.000,646.3E-3
6.000,0.000,633.9E-3
6.000,0.000,619.9E-3
6.000,0.000,604.4E-3
6.000,0.000,587.1E-3
6.000,0.000,567.8E-3
6.000,0.000,546.3E-3
6.000,0.000,522.3E-3
6.000,0.000,495.4E-3
6.000,0.000,465.5E-3
6.000,0.000,453.1E-3
6.000,0.000,444.0E-3
6.000,0.000,437.9E-3
6.000,0.000,431.1E-3
6.000,0.000,425.1E-3
6.000,0.000,416.0E-3
6.000,0.000,404.6E-3
6.000,0.000,396.9E-3
6.000,0.000,390.1E-3
6.000,0.000,384.0E-3
6.000,0.000,378.4E-3
6.000,0.000,373.3E-3
6.000,0.000,368.6E-3
6.000,0.000,364.2E-3
6.000,0.000,360.1E-3
6.000,0.000,356.3E-3
6.000,0.000,352.8E-3
6.000,0.000,349.5E-3
6.000,0.000,346.3E-3
6.000,0.000,343.3E-3
6.000,0.000,340.4E-3
6.000,0.000,337.5E-3
6.000,0.000,334.6E-3
6.000,0.000,331.7E-3
6.000,0.000,328.7E-3
6.000,0.000,325.5E-3
6.000,0.000,322.2E-3
6.000,0.000,318.8E-3
6.000,0.000,315.1E-3
6.000,0.000,311.3E-3
6.000,0.000,307.4E-3
6.000,0.000,303.4E-3
6.000,0.000,299.4E-3
6.000,0.000,295.5E-3
6.000,0.000,291.6E-3
6.000,0.000,287.6E-3
6.000,0.000,283.8E-3
6.000,0.000,279.9E-3
6.000,0.000,276.0E-3
6.000,0.000,272.1E-3
6.000,0.000,268.3E-3
6.000,0.000,264.4E-3
6.000,0.000,260.6E-3
6.000,0.000,256.8E-3
6.000,0.000,253.0E-3
6.000,0.000,249.2E-3
6.000,0.000,245.4E-3
6.000,0.000,241.7E-3
6.000,0.000,237.9E-3
6.000,0.000,234.2E-3
6.000,0.000,230.4E-3
6.000,0.000,226.7E-3
6.000,0.000,223.0E-3
6.000,0.000,219.3E-3
6.000,0.000,215.6E-3
6.000,0.000,211.9E-3
6.000,0.000,208.2E-3
6.000,0.000,204.5E-3
6.000,0.000,200.9E-3
6.000,0.000,197.2E-3
6.000,0.000,193.6E-3
6.000,0.000,189.9E-3
6.000,0.000,186.3E-3
6.000,0.000,182.7E-3
6.000,0.000,179.1E-3
6.000,0.000,175.5E-3
6.000,0.000,171.9E-3
6.000,0.000,168.3E-3
6.000,0.000,164.8E-3
6.000,0.000,161.2E-3
6.000,0.000,157.6E-3
6.000,0.000,154.1E-3
6.000,0.000,150.5E-3
6.001,0.000,147.0E-3
6.001,0.000,143.5E-3
6.001,0.000,140.0E-3
6.001,0.000,136.5E-3
6.001,0.000,133.0E-3
6.001,0.000,129.5E-3
6.001,0.000,126.0E-3
6.001,0.000,122.6E-3
6.001,0.000,119.1E-3
6.002,0.000,115.7E-3
6.002,0.000,112.2E-3
6.002,0.000,108.8E-3
6.002,0.000,105.4E-3
6.003,0.000,102.0E-3
6.003,0.000,98.63E-3
6.003,0.000,95.27E-3
6.004,0.000,91.92E-3
6.004,0.000,88.59E-3
6.005,0.000,85.29E-3
6.005,0.000,82.01E-3
6.006,0.000,78.75E-3
6.007,0.000,75.52E-3
6.007,0.000,72.32E-3
6.008,0.000,69.15E-3
6.009,0.000,66.02E-3
6.010,0.000,62.93E-3
6.012,0.000,59.90E-3
6.013,0.000,56.91E-3
6.015,0.000,53.98E-3
6.017,0.000,51.13E-3
6.019,0.000,48.35E-3
6.021,0.000,45.65E-3
6.024,0.000,43.06E-3
6.027,0.000,40.57E-3
6.030,0.000,38.19E-3
6.034,0.000,35.95E-3
6.039,0.000,33.85E-3
6.043,0.000,31.90E-3
6.049,0.000,30.10E-3
6.055,0.000,28.48E-3
6.062,0.000,27.03E-3
6.070,0.000,25.75E-3
6.076,0.000,24.98E-3
6.085,0.000,24.01E-3
6.093,0.000,23.40E-3
6.100,0.000,22.93E-3
6.109,0.000,22.50E-3
6.119,0.000,22.14E-3
6.130,0.000,21.84E-3
6.142,0.000,21.59E-3
6.157,0.000,21.39E-3
6.174,0.000,21.24E-3
6.195,0.000,21.14E-3
6.222,0.000,21.07E-3
6.256,0.000,21.04E-3
6.304,0.000,21.02E-3
6.367,0.000,21.02E-3
6.437,0.000,21.03E-3
6.507,0.000,21.03E-3
6.577,0.000,21.03E-3
6.647,0.000,21.03E-3
6.717,0.000,21.03E-3
6.787,0.000,21.03E-3
6.857,0.000,21.03E-3
6.927,0.000,21.03E-3
6.964,0.000,21.03E-3
7.000,0.000,21.03E-3
